date Sat Dec 5 03:14:59.812 pm 2015
base hex  timestamps absolute
internal events logged
// version 8.5.0
Begin Triggerblock Sat Dec 5 03:14:59.812 pm 2015
   0.000000 Start of measurement
   0.002396 1  B3              Rx   d 6 00 00 00 00 11 CA  Length = 197898 BitCount = 103 ID = 179
   0.003528 1  120             Rx   d 8 00 00 00 00 10 10 00 49  Length = 235894 BitCount = 122 ID = 288
   0.005228 1  3B              Rx   d 5 00 00 00 E8 28  Length = 181898 BitCount = 95 ID = 59
   0.005622 1  38              Rx   d 7 80 00 08 00 00 00 C7  Length = 219894 BitCount = 114 ID = 56
   0.005871 1  244             Rx   d 8 10 00 00 00 00 00 00 5E  Length = 239894 BitCount = 124 ID = 580
   0.006233 1  39              Rx   d 4 19 00 0B 61  Length = 157898 BitCount = 83 ID = 57
   0.007313 1  3C8             Rx   d 6 00 34 00 00 00 05  Length = 199898 BitCount = 104 ID = 968
   0.007619 1  3A              Rx   d 7 00 00 00 00 04 06 4B  Length = 217894 BitCount = 113 ID = 58
   0.008096 1  20              Rx   d 3 00 00 07  Length = 147898 BitCount = 78 ID = 32
   0.008342 1  30              Rx   d 8 04 00 00 00 00 20 00 5C  Length = 237894 BitCount = 123 ID = 48
   0.008548 1  B1              Rx   d 6 00 00 00 00 11 C8  Length = 197898 BitCount = 103 ID = 177
   0.008780 1  25              Rx   d 8 0F 3E 0F F5 78 78 78 E6  Length = 223894 BitCount = 116 ID = 37
   0.009029 1  B4              Rx   d 8 00 00 00 00 00 00 00 BC  Length = 239894 BitCount = 124 ID = 180
   0.009279 1  230             Rx   d 7 00 06 00 00 00 00 3F  Length = 219894 BitCount = 114 ID = 560
   0.009683 1  22              Rx   d 8 01 F5 01 FA 00 00 00 1B  Length = 235894 BitCount = 122 ID = 34
   0.009905 1  23              Rx   d 7 01 FE 02 02 00 00 2D  Length = 213894 BitCount = 111 ID = 35
   0.010055 1  3E              Rx   d 3 16 D0 27  Length = 141898 BitCount = 75 ID = 62
   0.013230 1  3B              Rx   d 5 00 00 00 E8 28  Length = 181898 BitCount = 95 ID = 59
   0.013796 1  38              Rx   d 7 80 00 08 00 00 00 C7  Length = 219894 BitCount = 114 ID = 56
   0.014192 1  30              Rx   d 8 04 00 00 00 00 20 00 5C  Length = 237894 BitCount = 123 ID = 48
   0.014398 1  B3              Rx   d 6 00 00 00 00 11 CA  Length = 198136 BitCount = 103 ID = 179
   0.014565 1  39              Rx   d 4 19 00 0B 61  Length = 158136 BitCount = 83 ID = 57
   0.014732 1  262             Rx   d 4 00 01 00 69  Length = 159660 BitCount = 84 ID = 610
   0.014867 1  521             Rx   d 2 23 00  Length = 125898 BitCount = 67 ID = 1313
   0.015827 1  3A              Rx   d 7 00 00 00 00 04 06 4B  Length = 217894 BitCount = 113 ID = 58
   0.017527 1  3CF             Rx   d 5 10 14 20 00 1B  Length = 173898 BitCount = 91 ID = 975
   0.017795 1  3E              Rx   d 3 16 D0 27  Length = 141898 BitCount = 75 ID = 62
   0.019897 1  120             Rx   d 8 00 00 00 00 10 10 00 49  Length = 235894 BitCount = 122 ID = 288
   0.020100 1  20              Rx   d 3 00 00 07  Length = 147898 BitCount = 78 ID = 32
   0.020346 1  30              Rx   d 8 04 00 00 00 00 20 00 5C  Length = 237894 BitCount = 123 ID = 48
   0.020552 1  B1              Rx   d 6 00 00 00 00 11 C8  Length = 197898 BitCount = 103 ID = 177
   0.020784 1  25              Rx   d 8 0F 3E 0F F5 78 78 78 E6  Length = 223894 BitCount = 116 ID = 37
   0.021032 1  B4              Rx   d 8 00 00 00 00 00 00 00 BC  Length = 239894 BitCount = 124 ID = 180
   0.021233 1  3B              Rx   d 5 00 00 00 E8 28  Length = 181898 BitCount = 95 ID = 59
   0.021693 1  22              Rx   d 8 01 F6 01 FA 00 00 00 1C  Length = 235894 BitCount = 122 ID = 34
   0.021915 1  23              Rx   d 7 01 FE 02 02 00 00 2D  Length = 213894 BitCount = 111 ID = 35
   0.022143 1  38              Rx   d 7 80 00 08 00 00 00 C7  Length = 219894 BitCount = 114 ID = 56
   0.022617 1  39              Rx   d 4 19 00 0B 61  Length = 157898 BitCount = 83 ID = 57
   0.023969 1  3A              Rx   d 7 00 00 00 00 04 06 4B  Length = 217894 BitCount = 113 ID = 58
   0.025975 1  3E              Rx   d 3 16 D0 27  Length = 141898 BitCount = 75 ID = 62
   0.026226 1  30              Rx   d 8 04 00 00 00 00 20 00 5C  Length = 237894 BitCount = 123 ID = 48
   0.026432 1  B3              Rx   d 6 00 00 00 00 11 CA  Length = 197898 BitCount = 103 ID = 179
   0.029236 1  3B              Rx   d 5 00 00 00 E8 28  Length = 181898 BitCount = 95 ID = 59
   0.030183 1  38              Rx   d 7 80 00 08 00 00 00 C7  Length = 219894 BitCount = 114 ID = 56
   0.030431 1  244             Rx   d 8 10 00 00 00 00 00 00 5E  Length = 239894 BitCount = 124 ID = 580
   0.030811 1  39              Rx   d 4 19 00 0B 61  Length = 157898 BitCount = 83 ID = 57
   0.032167 1  3A              Rx   d 7 00 00 00 00 04 06 4B  Length = 217894 BitCount = 113 ID = 58
   0.032323 1  20              Rx   d 3 00 00 07  Length = 147898 BitCount = 78 ID = 32
   0.032570 1  30              Rx   d 8 04 00 00 00 00 20 00 5C  Length = 237894 BitCount = 123 ID = 48
   0.032776 1  B1              Rx   d 6 00 00 00 00 11 C8  Length = 197898 BitCount = 103 ID = 177
   0.033010 1  25              Rx   d 8 0F 3E 0F F5 7B 7B 7B EF  Length = 225894 BitCount = 117 ID = 37
   0.033258 1  B4              Rx   d 8 00 00 00 00 00 00 00 BC  Length = 239894 BitCount = 124 ID = 180
   0.033449 1  3CA             Rx   d 5 00 20 00 00 F2  Length = 181898 BitCount = 95 ID = 970
   0.033677 1  230             Rx   d 7 00 06 00 00 00 00 3F  Length = 219894 BitCount = 114 ID = 560
   0.033925 1  22              Rx   d 8 01 F6 01 F9 00 00 00 1B  Length = 235894 BitCount = 122 ID = 34
   0.034147 1  23              Rx   d 7 01 FE 02 02 00 00 2D  Length = 213894 BitCount = 111 ID = 35
   0.034297 1  3E              Rx   d 3 16 D0 27  Length = 141898 BitCount = 75 ID = 62
   0.034465 1  262             Rx   d 4 00 01 00 69  Length = 159660 BitCount = 84 ID = 610
   0.036327 1  120             Rx   d 8 00 00 00 00 10 10 00 49  Length = 235894 BitCount = 122 ID = 288
   0.037259 1  3B              Rx   d 5 00 00 00 E8 28  Length = 181898 BitCount = 95 ID = 59
   0.038260 1  30              Rx   d 8 04 00 00 00 00 20 00 5C  Length = 237894 BitCount = 123 ID = 48
   0.038488 1  38              Rx   d 7 80 00 08 00 00 00 C7  Length = 219894 BitCount = 114 ID = 56
   0.038694 1  B3              Rx   d 6 00 00 00 00 11 CA  Length = 197898 BitCount = 103 ID = 179
   0.039004 1  39              Rx   d 4 19 00 0B 61  Length = 157898 BitCount = 83 ID = 57
   0.040388 1  3A              Rx   d 7 00 00 00 00 04 06 4B  Length = 217894 BitCount = 113 ID = 58
   0.040597 1  348             Rx   d 6 00 01 00 00 00 52  Length = 199898 BitCount = 104 ID = 840
   0.041891 CAN 1 Status:chip status error active
   0.041891 CAN 2 Status:chip status error active
   0.042359 1  3E              Rx   d 3 16 D0 27  Length = 141898 BitCount = 75 ID = 62
   0.044177 1  20              Rx   d 3 00 00 07  Length = 147898 BitCount = 78 ID = 32
   0.044423 1  30              Rx   d 8 04 00 00 00 00 20 00 5C  Length = 237894 BitCount = 123 ID = 48
   0.044629 1  B1              Rx   d 6 00 00 00 00 11 C8  Length = 197898 BitCount = 103 ID = 177
   0.044866 1  25              Rx   d 8 0F 3E 0F F5 76 76 76 E0  Length = 227894 BitCount = 118 ID = 37
   0.045114 1  B4              Rx   d 8 00 00 00 00 00 00 00 BC  Length = 239894 BitCount = 124 ID = 180
   0.045304 1  3B              Rx   d 5 00 00 00 E8 28  Length = 181898 BitCount = 95 ID = 59
   0.045762 1  22              Rx   d 8 01 F6 01 FA 00 00 00 1C  Length = 235894 BitCount = 122 ID = 34
   0.045984 1  23              Rx   d 7 01 FE 02 02 00 00 2D  Length = 213894 BitCount = 111 ID = 35
   0.046593 1  38              Rx   d 7 80 00 08 00 00 00 C7  Length = 219894 BitCount = 114 ID = 56
   0.047197 1  39              Rx   d 4 19 00 0B 61  Length = 157898 BitCount = 83 ID = 57
   0.048545 1  3A              Rx   d 7 00 00 00 00 04 06 4B  Length = 217894 BitCount = 113 ID = 58
   0.050287 1  30              Rx   d 8 04 00 00 00 00 20 00 5C  Length = 237894 BitCount = 123 ID = 48
   0.050493 1  B3              Rx   d 6 00 00 00 00 11 CA  Length = 197898 BitCount = 103 ID = 179
   0.050643 1  3E              Rx   d 3 16 D0 27  Length = 141898 BitCount = 75 ID = 62
   0.052678 1  120             Rx   d 8 00 00 00 00 10 10 00 49  Length = 235894 BitCount = 122 ID = 288
   0.053266 1  3B              Rx   d 5 00 00 00 E8 28  Length = 181898 BitCount = 95 ID = 59
   0.054263 1  262             Rx   d 4 00 01 00 69  Length = 159660 BitCount = 84 ID = 610
   0.054763 1  38              Rx   d 7 80 00 08 00 00 00 C7  Length = 219894 BitCount = 114 ID = 56
   0.055011 1  244             Rx   d 8 10 00 00 00 00 00 00 5E  Length = 239894 BitCount = 124 ID = 580
   0.055391 1  39              Rx   d 4 19 00 0B 61  Length = 157898 BitCount = 83 ID = 57
   0.056231 1  20              Rx   d 3 00 00 07  Length = 147898 BitCount = 78 ID = 32
   0.056478 1  30              Rx   d 8 04 00 00 00 00 20 00 5C  Length = 237894 BitCount = 123 ID = 48
   0.056684 1  B1              Rx   d 6 00 00 00 00 11 C8  Length = 197898 BitCount = 103 ID = 177
   0.056916 1  25              Rx   d 8 0F 3E 0F F5 78 78 78 E6  Length = 223894 BitCount = 116 ID = 37
   0.057142 1  3A              Rx   d 7 00 00 00 00 04 06 4B  Length = 217894 BitCount = 113 ID = 58
   0.057391 1  B4              Rx   d 8 00 00 00 00 00 00 00 BC  Length = 239894 BitCount = 124 ID = 180
   0.057641 1  230             Rx   d 7 00 06 00 00 00 00 3F  Length = 219894 BitCount = 114 ID = 560
   0.057889 1  22              Rx   d 8 01 F5 01 FB 00 00 00 1C  Length = 239894 BitCount = 124 ID = 34
   0.058111 1  23              Rx   d 7 01 FE 02 02 00 00 2D  Length = 213894 BitCount = 111 ID = 35
   0.058741 1  3E              Rx   d 3 16 D0 27  Length = 141898 BitCount = 75 ID = 62
   0.061222 1  3B              Rx   d 5 00 00 00 E8 28  Length = 181898 BitCount = 95 ID = 59
   0.061520 1  526             Rx   d 3 24 00 00  Length = 141898 BitCount = 75 ID = 1318
   0.061650 1  52C             Rx   d 2 23 32  Length = 121898 BitCount = 65 ID = 1324
   0.062341 1  30              Rx   d 8 04 00 00 00 00 20 00 5C  Length = 237894 BitCount = 123 ID = 48
   0.062547 1  B3              Rx   d 6 00 00 00 00 11 CA  Length = 197898 BitCount = 103 ID = 179
   0.062993 1  38              Rx   d 7 80 00 08 00 00 00 C7  Length = 219894 BitCount = 114 ID = 56
   0.063583 1  39              Rx   d 4 19 00 0B 61  Length = 157898 BitCount = 83 ID = 57
   0.064934 1  3A              Rx   d 7 00 00 00 00 04 06 4B  Length = 217894 BitCount = 113 ID = 58
   0.066934 1  3E              Rx   d 3 16 D0 27  Length = 141898 BitCount = 75 ID = 62
   0.068248 1  20              Rx   d 3 00 00 07  Length = 147898 BitCount = 78 ID = 32
   0.068494 1  30              Rx   d 8 04 00 00 00 00 20 00 5C  Length = 237894 BitCount = 123 ID = 48
   0.068700 1  B1              Rx   d 6 00 00 00 00 11 C8  Length = 197898 BitCount = 103 ID = 177
   0.068932 1  25              Rx   d 8 0F 3E 0F F5 78 78 78 E6  Length = 223894 BitCount = 116 ID = 37
   0.069181 1  B4              Rx   d 8 00 00 00 00 00 00 00 BC  Length = 239894 BitCount = 124 ID = 180
   0.069371 1  3B              Rx   d 5 00 00 00 E8 28  Length = 181898 BitCount = 95 ID = 59
   0.069615 1  120             Rx   d 8 00 00 00 00 10 10 00 49  Length = 235894 BitCount = 122 ID = 288
   0.069863 1  22              Rx   d 8 01 F5 01 FB 00 00 00 1C  Length = 239894 BitCount = 124 ID = 34
   0.070085 1  23              Rx   d 7 01 FE 02 02 00 00 2D  Length = 213894 BitCount = 111 ID = 35
   0.071133 1  38              Rx   d 7 80 00 08 00 00 00 C7  Length = 219894 BitCount = 114 ID = 56
   0.071744 1  5D4             Rx   d 2 23 00  Length = 123898 BitCount = 66 ID = 1492
   0.071910 1  39              Rx   d 4 19 00 0B 61  Length = 157898 BitCount = 83 ID = 57
   0.072858 1  3C8             Rx   d 6 00 34 00 00 00 05  Length = 199898 BitCount = 104 ID = 968
   0.073133 1  3A              Rx   d 7 00 00 00 00 04 06 4B  Length = 217894 BitCount = 113 ID = 58
   0.073367 1  3C9             Rx   d 8 03 FF 25 02 AB 03 34 DF  Length = 225894 BitCount = 117 ID = 969
   0.074302 1  262             Rx   d 4 00 01 00 69  Length = 159660 BitCount = 84 ID = 610
   0.074548 1  30              Rx   d 8 04 00 00 00 00 20 00 5C  Length = 237894 BitCount = 123 ID = 48
   0.074754 1  B3              Rx   d 6 00 00 00 00 11 CA  Length = 197898 BitCount = 103 ID = 179
   0.075124 1  3E              Rx   d 3 16 D0 27  Length = 141898 BitCount = 75 ID = 62
   0.076993 1  4C1             Rx   d 8 01 00 09 01 00 00 00 00  Length = 237894 BitCount = 123 ID = 1217
   0.077227 1  3B              Rx   d 5 00 00 00 E8 28  Length = 181898 BitCount = 95 ID = 59
   0.079319 1  38              Rx   d 7 80 00 08 00 00 00 C7  Length = 219894 BitCount = 114 ID = 56
   0.079567 1  244             Rx   d 8 10 00 00 00 00 00 00 5E  Length = 239894 BitCount = 124 ID = 580
   0.079969 1  39              Rx   d 4 19 00 0B 61  Length = 157898 BitCount = 83 ID = 57
   0.080310 1  20              Rx   d 3 00 00 07  Length = 147898 BitCount = 78 ID = 32
   0.080556 1  30              Rx   d 8 04 00 00 00 00 20 00 5C  Length = 237894 BitCount = 123 ID = 48
   0.080762 1  B1              Rx   d 6 00 00 00 00 11 C8  Length = 197898 BitCount = 103 ID = 177
   0.080996 1  25              Rx   d 8 0F 3E 0F F5 79 79 79 E9  Length = 225894 BitCount = 117 ID = 37
   0.081244 1  B4              Rx   d 8 00 00 00 00 00 00 00 BC  Length = 239894 BitCount = 124 ID = 180
   0.081473 1  3A              Rx   d 7 00 00 00 00 04 07 4C  Length = 219894 BitCount = 114 ID = 58
   0.081701 1  230             Rx   d 7 00 06 00 00 00 00 3F  Length = 219894 BitCount = 114 ID = 560
   0.081945 1  22              Rx   d 8 01 F5 01 FA 00 00 00 1B  Length = 235894 BitCount = 122 ID = 34
   0.082167 1  23              Rx   d 7 01 FE 02 02 00 00 2D  Length = 213894 BitCount = 111 ID = 35
   0.082375 1  348             Rx   d 6 00 01 00 00 00 52  Length = 199898 BitCount = 104 ID = 840
   0.082591 1  3CB             Rx   d 7 62 62 00 7E 10 0E 35  Length = 207898 BitCount = 108 ID = 971
   0.082706 1  423             Rx   d 1 00  Length = 105898 BitCount = 57 ID = 1059
   0.082840 1  5F8             Rx   d 2 23 04  Length = 125898 BitCount = 67 ID = 1528
   0.083352 1  3E              Rx   d 3 16 D0 27  Length = 141898 BitCount = 75 ID = 62
   0.085237 1  3B              Rx   d 5 00 00 00 E8 28  Length = 181898 BitCount = 95 ID = 59
   0.085481 1  120             Rx   d 8 00 00 00 00 10 10 00 49  Length = 235894 BitCount = 122 ID = 288
   0.086437 1  30              Rx   d 8 04 00 00 00 00 20 00 5C  Length = 237894 BitCount = 123 ID = 48
   0.086643 1  B3              Rx   d 6 00 00 00 00 11 CA  Length = 197898 BitCount = 103 ID = 179
   0.087544 1  38              Rx   d 7 80 00 08 00 00 00 C7  Length = 219894 BitCount = 114 ID = 56
   0.088164 1  39              Rx   d 4 19 00 0B 61  Length = 157898 BitCount = 83 ID = 57
   0.089180 1  5CC             Rx   d 3 24 01 A3  Length = 137898 BitCount = 73 ID = 1484
   0.089366 1  3CD             Rx   d 5 00 00 00 E7 BC  Length = 177898 BitCount = 93 ID = 973
   0.089593 1  3A              Rx   d 7 00 00 00 00 04 06 4B  Length = 217894 BitCount = 113 ID = 58
   0.091507 1  3E              Rx   d 3 16 D0 27  Length = 141898 BitCount = 75 ID = 62
   0.092343 1  20              Rx   d 3 00 00 07  Length = 147898 BitCount = 78 ID = 32
   0.092589 1  30              Rx   d 8 04 00 00 00 00 20 00 5C  Length = 237894 BitCount = 123 ID = 48
   0.092795 1  B1              Rx   d 6 00 00 00 00 11 C8  Length = 197898 BitCount = 103 ID = 177
   0.093028 1  25              Rx   d 8 0F 3E 0F F5 78 78 78 E6  Length = 223894 BitCount = 116 ID = 37
   0.093276 1  B4              Rx   d 8 00 00 00 00 00 00 00 BC  Length = 239894 BitCount = 124 ID = 180
   0.093466 1  3B              Rx   d 5 00 00 00 E8 28  Length = 181898 BitCount = 95 ID = 59
   0.093940 1  22              Rx   d 8 01 F6 01 FA 00 00 00 1C  Length = 235894 BitCount = 122 ID = 34
   0.094162 1  23              Rx   d 7 01 FE 02 02 00 00 2D  Length = 213894 BitCount = 111 ID = 35
   0.094330 1  262             Rx   d 4 00 01 00 69  Length = 159660 BitCount = 84 ID = 610
   0.095720 1  38              Rx   d 7 80 00 08 00 00 00 C7  Length = 219894 BitCount = 114 ID = 56
   0.096356 1  39              Rx   d 4 19 00 0B 61  Length = 157898 BitCount = 83 ID = 57
   0.097266 1  4CE             Rx   d 8 0F 00 01 02 00 00 00 00  Length = 239894 BitCount = 124 ID = 1230
   0.097694 1  3A              Rx   d 7 00 00 00 00 04 06 4B  Length = 217894 BitCount = 113 ID = 58
   0.098477 1  30              Rx   d 8 04 00 00 00 00 20 00 5C  Length = 237894 BitCount = 123 ID = 48
   0.098683 1  B3              Rx   d 6 00 00 00 00 11 CA  Length = 197898 BitCount = 103 ID = 179
   0.099699 1  3E              Rx   d 3 16 D0 27  Length = 141898 BitCount = 75 ID = 62
   0.101241 1  3B              Rx   d 5 00 00 00 E8 28  Length = 181898 BitCount = 95 ID = 59
   0.101840 1  120             Rx   d 8 00 00 00 00 10 10 00 49  Length = 235894 BitCount = 122 ID = 288
   0.103882 1  38              Rx   d 7 80 00 08 00 00 00 C7  Length = 219894 BitCount = 114 ID = 56
   0.104130 1  244             Rx   d 8 10 00 00 00 00 00 00 5E  Length = 239894 BitCount = 124 ID = 580
   0.104420 1  20              Rx   d 3 00 00 07  Length = 147898 BitCount = 78 ID = 32
   0.104666 1  30              Rx   d 8 04 00 00 00 00 20 00 5C  Length = 237894 BitCount = 123 ID = 48
   0.104833 1  39              Rx   d 4 19 00 0B 61  Length = 157898 BitCount = 83 ID = 57
   0.105067 1  25              Rx   d 8 0F 3E 0F F5 79 79 79 E9  Length = 225894 BitCount = 117 ID = 37
   0.105273 1  B1              Rx   d 6 00 00 00 00 11 C8  Length = 197898 BitCount = 103 ID = 177
   0.105521 1  B4              Rx   d 8 00 00 00 00 00 00 00 BC  Length = 239894 BitCount = 124 ID = 180
   0.105772 1  230             Rx   d 7 00 06 00 00 00 00 3F  Length = 219894 BitCount = 114 ID = 560
   0.105998 1  3A              Rx   d 7 00 00 00 00 04 06 4B  Length = 217894 BitCount = 113 ID = 58
   0.106242 1  22              Rx   d 8 01 F5 01 FA 00 00 00 1B  Length = 235894 BitCount = 122 ID = 34
   0.106464 1  23              Rx   d 7 01 FE 02 02 00 00 2D  Length = 213894 BitCount = 111 ID = 35
   0.107892 1  3E              Rx   d 3 16 D0 27  Length = 141898 BitCount = 75 ID = 62
   0.109244 1  3B              Rx   d 5 00 00 00 E8 28  Length = 181898 BitCount = 95 ID = 59
   0.110663 1  30              Rx   d 8 04 00 00 00 00 20 00 5C  Length = 237894 BitCount = 123 ID = 48
   0.110869 1  B3              Rx   d 6 00 00 00 00 11 CA  Length = 197898 BitCount = 103 ID = 179
   0.112101 1  38              Rx   d 7 80 00 08 00 00 00 C7  Length = 219894 BitCount = 114 ID = 56
   0.112743 1  39              Rx   d 4 19 00 0B 61  Length = 157898 BitCount = 83 ID = 57
   0.113912 1  262             Rx   d 4 00 01 00 69  Length = 159660 BitCount = 84 ID = 610
   0.114140 1  3A              Rx   d 7 00 00 00 00 04 07 4C  Length = 219894 BitCount = 114 ID = 58
   0.116082 1  3E              Rx   d 3 16 D0 27  Length = 141898 BitCount = 75 ID = 62
   0.116630 1  20              Rx   d 3 00 00 07  Length = 147898 BitCount = 78 ID = 32
   0.116877 1  30              Rx   d 8 04 00 00 00 00 20 00 5C  Length = 237894 BitCount = 123 ID = 48
   0.117083 1  B1              Rx   d 6 00 00 00 00 11 C8  Length = 197898 BitCount = 103 ID = 177
   0.117315 1  25              Rx   d 8 0F 3E 0F F5 7A 7A 7A EC  Length = 223894 BitCount = 116 ID = 37
   0.117505 1  3B              Rx   d 5 00 00 00 E8 28  Length = 181898 BitCount = 95 ID = 59
   0.117753 1  B4              Rx   d 8 00 00 00 00 00 00 00 BC  Length = 239894 BitCount = 124 ID = 180
   0.118220 1  22              Rx   d 8 01 F6 01 FA 00 00 00 1C  Length = 235894 BitCount = 122 ID = 34
   0.118442 1  23              Rx   d 7 01 FE 02 02 00 00 2D  Length = 213894 BitCount = 111 ID = 35
   0.118686 1  120             Rx   d 8 00 00 00 00 10 10 00 49  Length = 235894 BitCount = 122 ID = 288
   0.120264 1  38              Rx   d 7 80 00 08 00 00 00 C7  Length = 219894 BitCount = 114 ID = 56
   0.120438 1  540             Rx   d 4 25 80 00 00  Length = 165898 BitCount = 87 ID = 1344
   0.120936 1  39              Rx   d 4 19 00 0B 61  Length = 157898 BitCount = 83 ID = 57
   0.122271 1  3A              Rx   d 7 00 00 00 00 04 06 4B  Length = 217894 BitCount = 113 ID = 58
   0.122479 1  348             Rx   d 6 00 01 00 00 00 52  Length = 199898 BitCount = 104 ID = 840
   0.122729 1  30              Rx   d 8 04 00 00 00 00 20 00 5C  Length = 237894 BitCount = 123 ID = 48
   0.122935 1  B3              Rx   d 6 00 00 00 00 11 CA  Length = 197898 BitCount = 103 ID = 179
   0.123123 1  591             Rx   d 4 25 A0 1F 06  Length = 155898 BitCount = 82 ID = 1425
   0.124306 1  3E              Rx   d 3 16 D0 27  Length = 141898 BitCount = 75 ID = 62
   0.125252 1  3B              Rx   d 5 00 00 00 E8 28  Length = 181898 BitCount = 95 ID = 59
   0.128456 1  38              Rx   d 7 80 00 08 00 00 00 C7  Length = 219894 BitCount = 114 ID = 56
   0.128704 1  244             Rx   d 8 10 00 00 00 00 00 00 5E  Length = 239894 BitCount = 124 ID = 580
   0.128860 1  20              Rx   d 3 00 00 07  Length = 147898 BitCount = 78 ID = 32
   0.129107 1  30              Rx   d 8 04 00 00 00 00 20 00 5C  Length = 237894 BitCount = 123 ID = 48
   0.129273 1  39              Rx   d 4 19 00 0B 61  Length = 157898 BitCount = 83 ID = 57
   0.129505 1  25              Rx   d 8 0F 3E 0F F5 7A 7A 7A EC  Length = 223894 BitCount = 116 ID = 37
   0.129711 1  B1              Rx   d 6 00 00 00 00 11 C8  Length = 197898 BitCount = 103 ID = 177
   0.129960 1  B4              Rx   d 8 00 00 00 00 00 00 00 BC  Length = 239894 BitCount = 124 ID = 180
   0.130212 1  230             Rx   d 7 00 06 00 00 00 00 3F  Length = 219894 BitCount = 114 ID = 560
   0.130460 1  22              Rx   d 8 01 F5 01 FA 00 00 00 1B  Length = 235894 BitCount = 122 ID = 34
   0.130682 1  23              Rx   d 7 01 FE 02 02 00 00 2D  Length = 213894 BitCount = 111 ID = 35
   0.130908 1  3A              Rx   d 7 00 00 00 00 04 06 4B  Length = 217894 BitCount = 113 ID = 58
   0.132468 1  3E              Rx   d 3 16 D0 27  Length = 141898 BitCount = 75 ID = 62
   0.132659 1  3CA             Rx   d 5 00 20 00 00 F2  Length = 181898 BitCount = 95 ID = 970
   0.133273 1  3B              Rx   d 5 00 00 00 E8 28  Length = 181898 BitCount = 95 ID = 59
   0.134254 1  262             Rx   d 4 00 01 00 69  Length = 159660 BitCount = 84 ID = 610
   0.134616 1  120             Rx   d 8 00 00 00 00 10 10 00 49  Length = 235894 BitCount = 122 ID = 288
   0.134866 1  30              Rx   d 8 04 00 00 00 00 20 00 5C  Length = 237894 BitCount = 123 ID = 48
   0.135072 1  B3              Rx   d 6 00 00 00 00 11 CA  Length = 197898 BitCount = 103 ID = 179
   0.136684 1  38              Rx   d 7 80 00 08 00 00 00 C7  Length = 219894 BitCount = 114 ID = 56
   0.137323 1  39              Rx   d 4 19 00 0B 61  Length = 157898 BitCount = 83 ID = 57
   0.138403 1  3C8             Rx   d 6 00 34 00 00 00 05  Length = 199898 BitCount = 104 ID = 968
   0.138651 1  3A              Rx   d 7 00 00 00 00 04 06 4B  Length = 217894 BitCount = 113 ID = 58
   0.140655 1  3E              Rx   d 3 16 D0 27  Length = 141898 BitCount = 75 ID = 62
   0.140812 1  20              Rx   d 3 00 00 07  Length = 147898 BitCount = 78 ID = 32
   0.141058 1  30              Rx   d 8 04 00 00 00 00 20 00 5C  Length = 237894 BitCount = 123 ID = 48
   0.141264 1  B1              Rx   d 6 00 00 00 00 11 C8  Length = 197898 BitCount = 103 ID = 177
   0.141498 1  25              Rx   d 8 0F 3E 0F F5 77 77 77 E3  Length = 225894 BitCount = 117 ID = 37
   0.141688 1  3B              Rx   d 5 00 00 00 E8 28  Length = 181898 BitCount = 95 ID = 59
   0.141937 1  B4              Rx   d 8 00 00 00 00 00 00 00 BC  Length = 239894 BitCount = 124 ID = 180
   0.142409 1  22              Rx   d 8 01 F5 01 FA 00 00 00 1B  Length = 235894 BitCount = 122 ID = 34
   0.142631 1  23              Rx   d 7 01 FE 02 02 00 00 2D  Length = 213894 BitCount = 111 ID = 35
   0.144835 1  38              Rx   d 7 80 00 08 00 00 00 C7  Length = 219894 BitCount = 114 ID = 56
   0.145515 1  39              Rx   d 4 19 00 0B 61  Length = 157898 BitCount = 83 ID = 57
   0.146841 1  3A              Rx   d 7 00 00 00 00 04 06 4B  Length = 217894 BitCount = 113 ID = 58
   0.147087 1  30              Rx   d 8 04 00 00 00 00 20 00 5C  Length = 237894 BitCount = 123 ID = 48
   0.147294 1  B3              Rx   d 6 00 00 00 00 11 CA  Length = 197898 BitCount = 103 ID = 179
   0.148616 1  3CF             Rx   d 5 10 14 20 00 1B  Length = 173898 BitCount = 91 ID = 975
   0.148860 1  3E              Rx   d 3 16 D0 27  Length = 141898 BitCount = 75 ID = 62
   0.149278 1  3B              Rx   d 5 00 00 00 E8 28  Length = 181898 BitCount = 95 ID = 59
   0.151008 1  120             Rx   d 8 00 00 00 00 10 10 00 49  Length = 235894 BitCount = 122 ID = 288
   0.152839 1  20              Rx   d 3 00 00 07  Length = 147898 BitCount = 78 ID = 32
   0.153085 1  30              Rx   d 8 04 00 00 00 00 20 00 5C  Length = 237894 BitCount = 123 ID = 48
   0.153313 1  38              Rx   d 7 80 00 08 00 00 00 C7  Length = 219894 BitCount = 114 ID = 56
   0.153545 1  25              Rx   d 8 0F 3E 0F F5 78 78 78 E6  Length = 223894 BitCount = 116 ID = 37
   0.153711 1  39              Rx   d 4 19 00 0B 61  Length = 157898 BitCount = 83 ID = 57
   0.153918 1  B1              Rx   d 6 00 00 00 00 11 C8  Length = 197898 BitCount = 103 ID = 177
   0.154166 1  B4              Rx   d 8 00 00 00 00 00 00 00 BC  Length = 239894 BitCount = 124 ID = 180
   0.154414 1  244             Rx   d 8 10 00 00 00 00 00 00 5E  Length = 240136 BitCount = 124 ID = 580
   0.154658 1  22              Rx   d 8 01 F5 01 FA 00 00 00 1B  Length = 235894 BitCount = 122 ID = 34
   0.154881 1  23              Rx   d 7 01 FE 02 02 00 00 2D  Length = 214136 BitCount = 111 ID = 35
   0.155107 1  3A              Rx   d 7 00 00 00 00 04 06 4B  Length = 217894 BitCount = 113 ID = 58
   0.155335 1  230             Rx   d 7 00 06 00 00 00 00 3F  Length = 220136 BitCount = 114 ID = 560
   0.155503 1  262             Rx   d 4 00 01 00 69  Length = 159660 BitCount = 84 ID = 610
   0.157073 1  3E              Rx   d 3 16 D0 27  Length = 141898 BitCount = 75 ID = 62
   0.157263 1  3B              Rx   d 5 00 00 00 E8 28  Length = 181898 BitCount = 95 ID = 59
   0.159119 1  30              Rx   d 8 04 00 00 00 00 20 00 5C  Length = 237894 BitCount = 123 ID = 48
   0.159325 1  B3              Rx   d 6 00 00 00 00 11 CA  Length = 197898 BitCount = 103 ID = 179
   0.161264 1  38              Rx   d 7 80 00 08 00 00 00 C7  Length = 219894 BitCount = 114 ID = 56
   0.161902 1  39              Rx   d 4 19 00 0B 61  Length = 157898 BitCount = 83 ID = 57
   0.163228 1  3A              Rx   d 7 00 00 00 00 04 06 4B  Length = 217894 BitCount = 113 ID = 58
   0.163436 1  348             Rx   d 6 00 01 00 00 00 52  Length = 199898 BitCount = 104 ID = 840
   0.165076 1  20              Rx   d 3 00 00 07  Length = 147898 BitCount = 78 ID = 32
   0.165323 1  30              Rx   d 8 04 00 00 00 00 20 00 5C  Length = 237894 BitCount = 123 ID = 48
   0.165513 1  3B              Rx   d 5 00 00 00 E8 28  Length = 181898 BitCount = 95 ID = 59
   0.165745 1  25              Rx   d 8 0F 3E 0F F5 7A 7A 7A EC  Length = 223894 BitCount = 116 ID = 37
   0.165895 1  3E              Rx   d 3 16 D0 27  Length = 141898 BitCount = 75 ID = 62
   0.166101 1  B1              Rx   d 6 00 00 00 00 11 C8  Length = 197898 BitCount = 103 ID = 177
   0.166350 1  B4              Rx   d 8 00 00 00 00 00 00 00 BC  Length = 239894 BitCount = 124 ID = 180
   0.166668 1  22              Rx   d 8 01 F5 01 FA 00 00 00 1B  Length = 235894 BitCount = 122 ID = 34
   0.166890 1  23              Rx   d 7 01 FE 02 02 00 00 2D  Length = 213894 BitCount = 111 ID = 35
   0.167374 1  120             Rx   d 8 00 00 00 00 10 10 00 49  Length = 235894 BitCount = 122 ID = 288
   0.167544 1  528             Rx   d 4 25 00 00 00  Length = 161898 BitCount = 85 ID = 1320
   0.169412 1  38              Rx   d 7 80 00 08 00 00 00 C7  Length = 219894 BitCount = 114 ID = 56
   0.169643 1  5EC             Rx   d 7 28 00 00 00 00 00 00  Length = 221894 BitCount = 115 ID = 1516
   0.170095 1  39              Rx   d 4 19 00 0B 61  Length = 157898 BitCount = 83 ID = 57
   0.171263 1  30              Rx   d 8 04 00 00 00 00 20 00 5C  Length = 237894 BitCount = 123 ID = 48
   0.171489 1  3A              Rx   d 7 00 00 00 00 04 06 4B  Length = 217894 BitCount = 113 ID = 58
   0.171696 1  B3              Rx   d 6 00 00 00 00 11 CA  Length = 197898 BitCount = 103 ID = 179
   0.173298 1  3B              Rx   d 5 00 00 00 E8 28  Length = 181898 BitCount = 95 ID = 59
   0.173448 1  3E              Rx   d 3 16 D0 27  Length = 141898 BitCount = 75 ID = 62
   0.173682 1  3C9             Rx   d 8 03 FF 25 02 AB 03 34 DF  Length = 225894 BitCount = 117 ID = 969
   0.174066 1  262             Rx   d 4 00 01 00 69  Length = 159660 BitCount = 84 ID = 610
   0.177262 1  20              Rx   d 3 00 00 07  Length = 147898 BitCount = 78 ID = 32
   0.177508 1  30              Rx   d 8 04 00 00 00 00 20 00 5C  Length = 237894 BitCount = 123 ID = 48
   0.177737 1  38              Rx   d 7 80 00 08 00 00 00 C7  Length = 219894 BitCount = 114 ID = 56
   0.177969 1  25              Rx   d 8 0F 3E 0F F5 7A 7A 7A EC  Length = 223894 BitCount = 116 ID = 37
   0.178175 1  B1              Rx   d 6 00 00 00 00 11 C8  Length = 197898 BitCount = 103 ID = 177
   0.178341 1  39              Rx   d 4 19 00 0B 61  Length = 157898 BitCount = 83 ID = 57
   0.178589 1  B4              Rx   d 8 00 00 00 00 00 00 00 BC  Length = 239894 BitCount = 124 ID = 180
   0.178838 1  244             Rx   d 8 10 00 00 00 00 00 00 5E  Length = 239894 BitCount = 124 ID = 580
   0.179082 1  22              Rx   d 8 01 F5 01 FA 00 00 00 1B  Length = 235894 BitCount = 122 ID = 34
   0.179304 1  23              Rx   d 7 01 FE 02 02 00 00 2D  Length = 213894 BitCount = 111 ID = 35
   0.179532 1  230             Rx   d 7 00 06 00 00 00 00 3F  Length = 219894 BitCount = 114 ID = 560
   0.179758 1  3A              Rx   d 7 00 00 00 00 04 06 4B  Length = 217894 BitCount = 113 ID = 58
   0.181303 1  3B              Rx   d 5 00 00 00 E8 28  Length = 181898 BitCount = 95 ID = 59
   0.181523 1  3CB             Rx   d 7 62 62 00 7E 10 0E 35  Length = 207898 BitCount = 108 ID = 971
   0.181673 1  3E              Rx   d 3 16 D0 27  Length = 141898 BitCount = 75 ID = 62
   0.183433 1  30              Rx   d 8 04 00 00 00 00 20 00 5C  Length = 237894 BitCount = 123 ID = 48
   0.183640 1  B3              Rx   d 6 00 00 00 00 11 CA  Length = 197898 BitCount = 103 ID = 179
   0.183884 1  120             Rx   d 8 00 00 00 00 10 10 00 49  Length = 235894 BitCount = 122 ID = 288
   0.185824 1  38              Rx   d 7 80 00 08 00 00 00 C7  Length = 219894 BitCount = 114 ID = 56
   0.186480 1  39              Rx   d 4 19 00 0B 61  Length = 157898 BitCount = 83 ID = 57
   0.187798 1  3A              Rx   d 7 00 00 00 00 04 06 4B  Length = 217894 BitCount = 113 ID = 58
   0.189309 1  3B              Rx   d 5 00 00 00 E8 28  Length = 181898 BitCount = 95 ID = 59
   0.189465 1  20              Rx   d 3 00 00 07  Length = 147898 BitCount = 78 ID = 32
   0.189711 1  30              Rx   d 8 04 00 00 00 00 20 00 5C  Length = 237894 BitCount = 123 ID = 48
   0.189861 1  3E              Rx   d 3 16 D0 27  Length = 141898 BitCount = 75 ID = 62
   0.190094 1  25              Rx   d 8 0F 3E 0F F5 7A 7A 7A EC  Length = 223894 BitCount = 116 ID = 37
   0.190300 1  B1              Rx   d 6 00 00 00 00 11 C8  Length = 197898 BitCount = 103 ID = 177
   0.190548 1  B4              Rx   d 8 00 00 00 00 00 00 00 BC  Length = 239894 BitCount = 124 ID = 180
   0.190734 1  3CD             Rx   d 5 00 00 00 E7 BC  Length = 177898 BitCount = 93 ID = 973
   0.191062 1  22              Rx   d 8 01 F5 01 FB 00 00 00 1C  Length = 239894 BitCount = 124 ID = 34
   0.191285 1  23              Rx   d 7 01 FE 02 02 00 00 2D  Length = 213894 BitCount = 111 ID = 35
   0.193991 1  38              Rx   d 7 80 00 08 00 00 00 C7  Length = 219894 BitCount = 114 ID = 56
   0.194158 1  262             Rx   d 4 00 01 00 69  Length = 159660 BitCount = 84 ID = 610
   0.194675 1  39              Rx   d 4 19 00 0B 61  Length = 157898 BitCount = 83 ID = 57
   0.195489 1  30              Rx   d 8 04 00 00 00 00 20 00 5C  Length = 237894 BitCount = 123 ID = 48
   0.195695 1  B3              Rx   d 6 00 00 00 00 11 CA  Length = 197898 BitCount = 103 ID = 179
   0.196059 1  3A              Rx   d 7 00 00 00 00 04 06 4B  Length = 217894 BitCount = 113 ID = 58
   0.197326 1  3B              Rx   d 5 00 00 00 E8 28  Length = 181898 BitCount = 95 ID = 59
   0.197996 1  3E              Rx   d 3 16 D0 27  Length = 141898 BitCount = 75 ID = 62
   0.200108 1  120             Rx   d 8 00 00 00 00 10 10 00 49  Length = 235894 BitCount = 122 ID = 288
   0.201426 1  20              Rx   d 3 00 00 07  Length = 147898 BitCount = 78 ID = 32
   0.201672 1  30              Rx   d 8 04 00 00 00 00 20 00 5C  Length = 237894 BitCount = 123 ID = 48
   0.201879 1  B1              Rx   d 6 00 00 00 00 11 C8  Length = 197898 BitCount = 103 ID = 177
   0.202111 1  25              Rx   d 8 0F 3E 0F F5 78 78 78 E6  Length = 223894 BitCount = 116 ID = 37
   0.202339 1  38              Rx   d 7 80 00 08 00 00 00 C7  Length = 219894 BitCount = 114 ID = 56
   0.202587 1  B4              Rx   d 8 00 00 00 00 00 00 00 BC  Length = 239894 BitCount = 124 ID = 180
   0.202835 1  244             Rx   d 8 10 00 00 00 00 00 00 5E  Length = 239894 BitCount = 124 ID = 580
   0.203080 1  22              Rx   d 8 01 F5 01 FA 00 00 00 1B  Length = 235894 BitCount = 122 ID = 34
   0.203302 1  23              Rx   d 7 01 FE 02 02 00 00 2D  Length = 213894 BitCount = 111 ID = 35
   0.203468 1  39              Rx   d 4 19 00 0B 61  Length = 157898 BitCount = 83 ID = 57
   0.203696 1  230             Rx   d 7 00 06 00 00 00 00 3F  Length = 219894 BitCount = 114 ID = 560
   0.203948 1  3C8             Rx   d 6 00 34 00 00 00 05  Length = 199898 BitCount = 104 ID = 968
   0.204210 1  3A              Rx   d 7 00 00 00 00 04 06 4B  Length = 217894 BitCount = 113 ID = 58
   0.204419 1  348             Rx   d 6 00 01 00 00 00 52  Length = 199898 BitCount = 104 ID = 840
   0.205335 1  3B              Rx   d 5 00 00 00 E8 28  Length = 181898 BitCount = 95 ID = 59
   0.206187 1  3E              Rx   d 3 16 D0 27  Length = 141898 BitCount = 75 ID = 62
   0.207557 1  30              Rx   d 8 04 00 00 00 00 20 00 5C  Length = 237894 BitCount = 123 ID = 48
   0.207763 1  B3              Rx   d 6 00 00 00 00 11 CA  Length = 197898 BitCount = 103 ID = 179
   0.210367 1  38              Rx   d 7 80 00 08 00 00 00 C7  Length = 219894 BitCount = 114 ID = 56
   0.211060 1  39              Rx   d 4 19 00 0B 61  Length = 157898 BitCount = 83 ID = 57
   0.212372 1  3A              Rx   d 7 00 00 00 00 04 06 4B  Length = 217894 BitCount = 113 ID = 58
   0.213326 1  3B              Rx   d 5 00 00 00 E9 29  Length = 177898 BitCount = 93 ID = 59
   0.213552 1  20              Rx   d 3 00 00 07  Length = 147898 BitCount = 78 ID = 32
   0.213799 1  30              Rx   d 8 04 00 00 00 00 20 00 5C  Length = 237894 BitCount = 123 ID = 48
   0.214005 1  B1              Rx   d 6 00 00 00 00 11 C8  Length = 198136 BitCount = 103 ID = 177
   0.214239 1  25              Rx   d 8 0F 3E 0F F5 79 79 79 E9  Length = 226136 BitCount = 117 ID = 37
   0.214389 1  3E              Rx   d 3 16 D0 27  Length = 142136 BitCount = 75 ID = 62
   0.214637 1  B4              Rx   d 8 00 00 00 00 00 00 00 BC  Length = 240136 BitCount = 124 ID = 180
   0.214805 1  262             Rx   d 4 00 01 00 69  Length = 159660 BitCount = 84 ID = 610
   0.215049 1  4C8             Rx   d 8 09 00 05 01 00 00 00 00  Length = 235652 BitCount = 122 ID = 1224
   0.215293 1  22              Rx   d 8 01 F6 01 FA 00 00 00 1C  Length = 235894 BitCount = 122 ID = 34
   0.215515 1  23              Rx   d 7 01 FE 02 02 00 00 2D  Length = 213894 BitCount = 111 ID = 35
   0.216535 1  120             Rx   d 8 00 00 00 00 10 10 00 49  Length = 235894 BitCount = 122 ID = 288
   0.218563 1  38              Rx   d 7 80 00 08 00 00 00 C7  Length = 219894 BitCount = 114 ID = 56
   0.219254 1  39              Rx   d 4 19 00 0B 61  Length = 157898 BitCount = 83 ID = 57
   0.219672 1  30              Rx   d 8 04 00 00 00 00 20 00 5C  Length = 237894 BitCount = 123 ID = 48
   0.219878 1  B3              Rx   d 6 00 00 00 00 11 CA  Length = 197898 BitCount = 103 ID = 179
   0.220606 1  3A              Rx   d 7 00 00 00 00 04 06 4B  Length = 217894 BitCount = 113 ID = 58
   0.221335 1  3B              Rx   d 5 00 00 00 E8 28  Length = 181898 BitCount = 95 ID = 59
   0.222571 1  3E              Rx   d 3 16 D0 27  Length = 141898 BitCount = 75 ID = 62
   0.225607 1  20              Rx   d 3 00 00 07  Length = 147898 BitCount = 78 ID = 32
   0.225853 1  30              Rx   d 8 04 00 00 00 00 20 00 5C  Length = 237894 BitCount = 123 ID = 48
   0.226059 1  B1              Rx   d 6 00 00 00 00 11 C8  Length = 197898 BitCount = 103 ID = 177
   0.226292 1  25              Rx   d 8 0F 3E 0F F5 78 78 78 E6  Length = 223894 BitCount = 116 ID = 37
   0.226540 1  B4              Rx   d 8 00 00 00 00 00 00 00 BC  Length = 239894 BitCount = 124 ID = 180
   0.226790 1  230             Rx   d 7 00 06 00 00 00 00 3F  Length = 219894 BitCount = 114 ID = 560
   0.227018 1  38              Rx   d 7 80 00 08 00 00 00 C7  Length = 219894 BitCount = 114 ID = 56
   0.227262 1  22              Rx   d 8 01 F5 01 FA 00 00 00 1B  Length = 235894 BitCount = 122 ID = 34
   0.227485 1  23              Rx   d 7 01 FE 02 02 00 00 2D  Length = 213894 BitCount = 111 ID = 35
   0.227651 1  39              Rx   d 4 19 00 0B 61  Length = 157898 BitCount = 83 ID = 57
   0.227899 1  244             Rx   d 8 10 00 00 00 00 00 00 5E  Length = 239894 BitCount = 124 ID = 580
   0.228775 1  3A              Rx   d 7 00 00 00 00 04 07 4C  Length = 219894 BitCount = 114 ID = 58
   0.229331 1  3B              Rx   d 5 00 00 00 E8 28  Length = 181898 BitCount = 95 ID = 59
   0.230762 1  3E              Rx   d 3 16 D0 27  Length = 141898 BitCount = 75 ID = 62
   0.231712 1  30              Rx   d 8 04 00 00 00 00 20 00 5C  Length = 237894 BitCount = 123 ID = 48
   0.231918 1  B3              Rx   d 6 00 00 00 00 11 CA  Length = 197898 BitCount = 103 ID = 179
   0.232906 1  120             Rx   d 8 00 00 00 00 10 10 00 49  Length = 235894 BitCount = 122 ID = 288
   0.233096 1  3CA             Rx   d 5 00 20 00 00 F2  Length = 181898 BitCount = 95 ID = 970
   0.234019 1  262             Rx   d 4 00 01 00 69  Length = 159660 BitCount = 84 ID = 610
   0.234956 1  38              Rx   d 7 80 00 08 00 00 00 C7  Length = 219894 BitCount = 114 ID = 56
   0.235640 1  39              Rx   d 4 19 00 0B 61  Length = 157898 BitCount = 83 ID = 57
   0.236958 1  3A              Rx   d 7 00 00 00 00 04 06 4B  Length = 217894 BitCount = 113 ID = 58
   0.237334 1  3B              Rx   d 5 00 00 00 E8 28  Length = 181898 BitCount = 95 ID = 59
   0.237800 1  20              Rx   d 3 00 00 07  Length = 147898 BitCount = 78 ID = 32
   0.238046 1  30              Rx   d 8 04 00 00 00 00 20 00 5C  Length = 237894 BitCount = 123 ID = 48
   0.238253 1  B1              Rx   d 6 00 00 00 00 11 C8  Length = 197898 BitCount = 103 ID = 177
   0.238485 1  25              Rx   d 8 0F 3E 0F F5 7A 7A 7A EC  Length = 223894 BitCount = 116 ID = 37
   0.238733 1  B4              Rx   d 8 00 00 00 00 00 00 00 BC  Length = 239894 BitCount = 124 ID = 180
   0.238953 1  3E              Rx   d 3 16 D0 27  Length = 141898 BitCount = 75 ID = 62
   0.239403 1  22              Rx   d 8 01 F5 01 FB 00 00 00 1C  Length = 239894 BitCount = 124 ID = 34
   0.239626 1  23              Rx   d 7 01 FE 02 02 00 00 2D  Length = 213894 BitCount = 111 ID = 35
   0.243141 1  38              Rx   d 7 80 00 08 00 00 00 C7  Length = 219894 BitCount = 114 ID = 56
   0.243834 1  39              Rx   d 4 19 00 0B 61  Length = 157898 BitCount = 83 ID = 57
   0.244080 1  30              Rx   d 8 04 00 00 00 00 20 00 5C  Length = 237894 BitCount = 123 ID = 48
   0.244286 1  B3              Rx   d 6 00 00 00 00 11 CA  Length = 197898 BitCount = 103 ID = 179
   0.245174 1  3A              Rx   d 7 00 00 00 00 04 06 4B  Length = 217894 BitCount = 113 ID = 58
   0.245364 1  3B              Rx   d 5 00 00 00 E8 28  Length = 181898 BitCount = 95 ID = 59
   0.245573 1  348             Rx   d 6 00 01 00 00 00 52  Length = 199898 BitCount = 104 ID = 840
   0.247161 1  3E              Rx   d 3 16 D0 27  Length = 141898 BitCount = 75 ID = 62
   0.249241 1  120             Rx   d 8 00 00 00 00 10 10 00 49  Length = 235894 BitCount = 122 ID = 288
   0.249841 1  20              Rx   d 3 00 00 07  Length = 147898 BitCount = 78 ID = 32
   0.250087 1  30              Rx   d 8 04 00 00 00 00 20 00 5C  Length = 237894 BitCount = 123 ID = 48
   0.250294 1  B1              Rx   d 6 00 00 00 00 11 C8  Length = 197898 BitCount = 103 ID = 177
   0.250526 1  25              Rx   d 8 0F 3E 0F F5 78 78 78 E6  Length = 223894 BitCount = 116 ID = 37
   0.250774 1  B4              Rx   d 8 00 00 00 00 00 00 00 BC  Length = 239894 BitCount = 124 ID = 180
   0.251024 1  230             Rx   d 7 00 06 00 00 00 00 3F  Length = 219894 BitCount = 114 ID = 560
   0.251403 1  38              Rx   d 7 80 00 08 00 00 00 C7  Length = 219894 BitCount = 114 ID = 56
   0.251651 1  22              Rx   d 8 01 F5 01 FB 00 00 00 1C  Length = 239894 BitCount = 124 ID = 34
   0.251873 1  23              Rx   d 7 01 FE 02 02 00 00 2D  Length = 213894 BitCount = 111 ID = 35
   0.252039 1  39              Rx   d 4 19 00 0B 61  Length = 157898 BitCount = 83 ID = 57
   0.252287 1  244             Rx   d 8 10 00 00 00 00 00 00 5E  Length = 239894 BitCount = 124 ID = 580
   0.253329 1  3A              Rx   d 7 00 00 00 00 04 06 4B  Length = 217894 BitCount = 113 ID = 58
   0.253520 1  3B              Rx   d 5 00 00 00 E8 28  Length = 181898 BitCount = 95 ID = 59
   0.254117 1  262             Rx   d 4 00 01 00 69  Length = 159660 BitCount = 84 ID = 610
   0.255335 1  3E              Rx   d 3 16 D0 27  Length = 141898 BitCount = 75 ID = 62
   0.256111 1  30              Rx   d 8 04 00 00 00 00 20 00 5C  Length = 237894 BitCount = 123 ID = 48
   0.256317 1  B3              Rx   d 6 00 00 00 00 11 CA  Length = 197898 BitCount = 103 ID = 179
   0.258091 1  57F             Rx   d 7 68 00 10 80 00 00 00  Length = 215894 BitCount = 112 ID = 1407
   0.259531 1  38              Rx   d 7 80 00 08 00 00 00 C7  Length = 219894 BitCount = 114 ID = 56
   0.260219 1  39              Rx   d 4 19 00 0B 61  Length = 157898 BitCount = 83 ID = 57
   0.261318 1  3B              Rx   d 5 00 00 00 E8 28  Length = 181898 BitCount = 95 ID = 59
   0.261544 1  3A              Rx   d 7 00 00 00 00 04 06 4B  Length = 217894 BitCount = 113 ID = 58
   0.262056 1  20              Rx   d 3 00 00 07  Length = 147898 BitCount = 78 ID = 32
   0.262303 1  30              Rx   d 8 04 00 00 00 00 20 00 5C  Length = 237894 BitCount = 123 ID = 48
   0.262509 1  B1              Rx   d 6 00 00 00 00 11 C8  Length = 197898 BitCount = 103 ID = 177
   0.262741 1  25              Rx   d 8 0F 3E 0F F5 7A 7A 7A EC  Length = 223894 BitCount = 116 ID = 37
   0.262989 1  B4              Rx   d 8 00 00 00 00 00 00 00 BC  Length = 239894 BitCount = 124 ID = 180
   0.263527 1  3E              Rx   d 3 16 D0 27  Length = 141898 BitCount = 75 ID = 62
   0.263776 1  22              Rx   d 8 01 F5 01 FB 00 00 00 1C  Length = 239894 BitCount = 124 ID = 34
   0.263998 1  23              Rx   d 7 01 FE 02 02 00 00 2D  Length = 213894 BitCount = 111 ID = 35
   0.265668 1  120             Rx   d 8 00 00 00 00 10 10 00 49  Length = 235894 BitCount = 122 ID = 288
   0.267706 1  38              Rx   d 7 80 00 08 00 00 00 C7  Length = 219894 BitCount = 114 ID = 56
   0.268158 1  30              Rx   d 8 04 00 00 00 00 20 00 5C  Length = 237894 BitCount = 123 ID = 48
   0.268364 1  B3              Rx   d 6 00 00 00 00 11 CA  Length = 197898 BitCount = 103 ID = 179
   0.268531 1  39              Rx   d 4 19 00 0B 61  Length = 157898 BitCount = 83 ID = 57
   0.269327 1  3B              Rx   d 5 00 00 00 E8 28  Length = 181898 BitCount = 95 ID = 59
   0.269535 1  3C8             Rx   d 6 00 34 00 00 00 05  Length = 199898 BitCount = 104 ID = 968
   0.269775 1  3A              Rx   d 7 00 00 00 00 04 06 4B  Length = 217894 BitCount = 113 ID = 58
   0.271719 1  3E              Rx   d 3 16 D0 27  Length = 141898 BitCount = 75 ID = 62
   0.273378 1  3C9             Rx   d 8 03 FF 25 02 AB 03 34 DF  Length = 225894 BitCount = 117 ID = 969
   0.273931 1  262             Rx   d 4 00 01 00 69  Length = 159660 BitCount = 84 ID = 610
   0.274087 1  20              Rx   d 3 00 00 07  Length = 147898 BitCount = 78 ID = 32
   0.274334 1  30              Rx   d 8 04 00 00 00 00 20 00 5C  Length = 237894 BitCount = 123 ID = 48
   0.274540 1  B1              Rx   d 6 00 00 00 00 11 C8  Length = 197898 BitCount = 103 ID = 177
   0.274772 1  25              Rx   d 8 0F 3E 0F F5 78 78 78 E6  Length = 223894 BitCount = 116 ID = 37
   0.275020 1  B4              Rx   d 8 00 00 00 00 00 00 00 BC  Length = 239894 BitCount = 124 ID = 180
   0.275275 1  230             Rx   d 7 00 06 00 00 00 00 3F  Length = 219894 BitCount = 114 ID = 560
   0.275681 1  22              Rx   d 8 01 F5 01 FA 00 00 00 1B  Length = 235894 BitCount = 122 ID = 34
   0.275903 1  23              Rx   d 7 01 FE 02 02 00 00 2D  Length = 213894 BitCount = 111 ID = 35
   0.276131 1  38              Rx   d 7 80 00 08 00 00 00 C7  Length = 219894 BitCount = 114 ID = 56
   0.276379 1  244             Rx   d 8 10 00 00 00 00 00 00 5E  Length = 239894 BitCount = 124 ID = 580
   0.276605 1  39              Rx   d 4 19 00 0B 61  Length = 157898 BitCount = 83 ID = 57
   0.277330 1  3B              Rx   d 5 00 00 00 E8 28  Length = 181898 BitCount = 95 ID = 59
   0.277920 1  3A              Rx   d 7 00 00 00 00 04 06 4B  Length = 217894 BitCount = 113 ID = 58
   0.279706 1  3CF             Rx   d 5 10 14 20 00 1B  Length = 173898 BitCount = 91 ID = 975
   0.279944 1  3E              Rx   d 3 16 D0 27  Length = 141898 BitCount = 75 ID = 62
   0.280191 1  30              Rx   d 8 04 00 00 00 00 20 00 5C  Length = 237894 BitCount = 123 ID = 48
   0.280397 1  B3              Rx   d 6 00 00 00 00 11 CA  Length = 197898 BitCount = 103 ID = 179
   0.281359 1  3CB             Rx   d 7 62 62 00 7E 10 0E 35  Length = 207898 BitCount = 108 ID = 971
   0.282055 1  120             Rx   d 8 00 00 00 00 10 10 00 49  Length = 235894 BitCount = 122 ID = 288
   0.284089 1  38              Rx   d 7 80 00 08 00 00 00 C7  Length = 219894 BitCount = 114 ID = 56
   0.284798 1  39              Rx   d 4 19 00 0B 61  Length = 157898 BitCount = 83 ID = 57
   0.285328 1  3B              Rx   d 5 00 00 00 E8 28  Length = 181898 BitCount = 95 ID = 59
   0.286128 1  3A              Rx   d 7 00 00 00 00 04 06 4B  Length = 217894 BitCount = 113 ID = 58
   0.286284 1  20              Rx   d 3 00 00 07  Length = 147898 BitCount = 78 ID = 32
   0.286531 1  30              Rx   d 8 04 00 00 00 00 20 00 5C  Length = 237894 BitCount = 123 ID = 48
   0.286737 1  B1              Rx   d 6 00 00 00 00 11 C8  Length = 197898 BitCount = 103 ID = 177
   0.286969 1  25              Rx   d 8 0F 3E 0F F5 7A 7A 7A EC  Length = 223894 BitCount = 116 ID = 37
   0.287217 1  B4              Rx   d 8 00 00 00 00 00 00 00 BC  Length = 239894 BitCount = 124 ID = 180
   0.287425 1  348             Rx   d 6 00 01 00 00 00 52  Length = 199898 BitCount = 104 ID = 840
   0.287875 1  22              Rx   d 8 01 F5 01 FA 00 00 00 1B  Length = 235894 BitCount = 122 ID = 34
   0.288098 1  23              Rx   d 7 01 FE 02 02 00 00 2D  Length = 213894 BitCount = 111 ID = 35
   0.288248 1  3E              Rx   d 3 16 D0 27  Length = 141898 BitCount = 75 ID = 62
   0.289330 1  3CD             Rx   d 5 00 00 00 E7 BC  Length = 177898 BitCount = 93 ID = 973
   0.292224 1  30              Rx   d 8 04 00 00 00 00 20 00 5C  Length = 237894 BitCount = 123 ID = 48
   0.292452 1  38              Rx   d 7 80 00 08 00 00 00 C7  Length = 219894 BitCount = 114 ID = 56
   0.292659 1  B3              Rx   d 6 00 00 00 00 11 CA  Length = 197898 BitCount = 103 ID = 179
   0.292993 1  39              Rx   d 4 19 00 0B 61  Length = 157898 BitCount = 83 ID = 57
   0.293329 1  3B              Rx   d 5 00 00 00 E8 28  Length = 181898 BitCount = 95 ID = 59
   0.293669 1  262             Rx   d 4 00 01 00 69  Length = 159660 BitCount = 84 ID = 610
   0.294351 1  3A              Rx   d 7 00 00 00 00 04 06 4B  Length = 217894 BitCount = 113 ID = 58
   0.296293 1  3E              Rx   d 3 16 D0 27  Length = 141898 BitCount = 75 ID = 62
   0.298139 1  20              Rx   d 3 00 00 07  Length = 147898 BitCount = 78 ID = 32
   0.298385 1  30              Rx   d 8 04 00 00 00 00 20 00 5C  Length = 237894 BitCount = 123 ID = 48
   0.298591 1  B1              Rx   d 6 00 00 00 00 11 C8  Length = 197898 BitCount = 103 ID = 177
   0.298826 1  25              Rx   d 8 0F 3E 0F F5 77 77 77 E3  Length = 225894 BitCount = 117 ID = 37
   0.299074 1  B4              Rx   d 8 00 00 00 00 00 00 00 BC  Length = 239894 BitCount = 124 ID = 180
   0.299318 1  120             Rx   d 8 00 00 00 00 10 10 00 49  Length = 235894 BitCount = 122 ID = 288
   0.299546 1  230             Rx   d 7 00 06 00 00 00 00 3F  Length = 219894 BitCount = 114 ID = 560
   0.299790 1  22              Rx   d 8 01 F5 01 FA 00 00 00 1B  Length = 235894 BitCount = 122 ID = 34
   0.300013 1  23              Rx   d 7 01 FE 02 02 00 00 2D  Length = 213894 BitCount = 111 ID = 35
   0.300525 1  38              Rx   d 7 80 00 08 00 00 00 C7  Length = 219894 BitCount = 114 ID = 56
   0.300773 1  244             Rx   d 8 10 00 00 00 00 00 00 5E  Length = 239894 BitCount = 124 ID = 580
   0.301185 1  39              Rx   d 4 19 00 0B 61  Length = 157898 BitCount = 83 ID = 57
   0.301375 1  3B              Rx   d 5 00 00 00 E8 28  Length = 181898 BitCount = 95 ID = 59
   0.302496 1  3A              Rx   d 7 00 00 00 00 04 06 4B  Length = 217894 BitCount = 113 ID = 58
   0.304256 1  30              Rx   d 8 04 00 00 00 00 20 00 5C  Length = 237894 BitCount = 123 ID = 48
   0.304462 1  B3              Rx   d 6 00 00 00 00 11 CA  Length = 197898 BitCount = 103 ID = 179
   0.304612 1  3E              Rx   d 3 16 D0 27  Length = 141898 BitCount = 75 ID = 62
   0.308672 1  38              Rx   d 7 80 00 08 00 00 00 C7  Length = 219894 BitCount = 114 ID = 56
   0.309314 1  3B              Rx   d 5 00 00 00 E8 28  Length = 181898 BitCount = 95 ID = 59
   0.309481 1  39              Rx   d 4 19 00 0B 61  Length = 157898 BitCount = 83 ID = 57
   0.310201 1  20              Rx   d 3 00 00 07  Length = 147898 BitCount = 78 ID = 32
   0.310447 1  30              Rx   d 8 04 00 00 00 00 20 00 5C  Length = 237894 BitCount = 123 ID = 48
   0.310653 1  B1              Rx   d 6 00 00 00 00 11 C8  Length = 197898 BitCount = 103 ID = 177
   0.310886 1  25              Rx   d 8 0F 3E 0F F5 78 78 78 E6  Length = 223894 BitCount = 116 ID = 37
   0.311112 1  3A              Rx   d 7 00 00 00 00 04 06 4B  Length = 217894 BitCount = 113 ID = 58
   0.311360 1  B4              Rx   d 8 00 00 00 00 00 00 00 BC  Length = 239894 BitCount = 124 ID = 180
   0.311790 1  22              Rx   d 8 01 F5 01 FA 00 00 00 1B  Length = 235894 BitCount = 122 ID = 34
   0.312012 1  23              Rx   d 7 01 FE 02 02 00 00 2D  Length = 213894 BitCount = 111 ID = 35
   0.312712 1  3E              Rx   d 3 16 D0 27  Length = 141898 BitCount = 75 ID = 62
   0.313915 1  521             Rx   d 2 23 00  Length = 125664 BitCount = 67 ID = 1313
   0.314083 1  262             Rx   d 4 00 01 00 69  Length = 159660 BitCount = 84 ID = 610
   0.314787 1  120             Rx   d 8 00 00 00 00 10 10 00 49  Length = 235894 BitCount = 122 ID = 288
   0.316323 1  30              Rx   d 8 04 00 00 00 00 20 00 5C  Length = 237894 BitCount = 123 ID = 48
   0.316529 1  B3              Rx   d 6 00 00 00 00 11 CA  Length = 197898 BitCount = 103 ID = 179
   0.316895 1  38              Rx   d 7 80 00 08 00 00 00 C7  Length = 219894 BitCount = 114 ID = 56
   0.317320 1  3B              Rx   d 5 00 00 00 E8 28  Length = 181898 BitCount = 95 ID = 59
   0.317572 1  39              Rx   d 4 19 00 0B 61  Length = 157898 BitCount = 83 ID = 57
   0.318888 1  3A              Rx   d 7 00 00 00 00 04 06 4B  Length = 217894 BitCount = 113 ID = 58
   0.320870 1  3E              Rx   d 3 16 D0 27  Length = 141898 BitCount = 75 ID = 62
   0.322258 1  20              Rx   d 3 00 00 07  Length = 147898 BitCount = 78 ID = 32
   0.322505 1  30              Rx   d 8 04 00 00 00 00 20 00 5C  Length = 237894 BitCount = 123 ID = 48
   0.322711 1  B1              Rx   d 6 00 00 00 00 11 C8  Length = 197898 BitCount = 103 ID = 177
   0.322943 1  25              Rx   d 8 0F 3E 0F F5 78 78 78 E6  Length = 223894 BitCount = 116 ID = 37
   0.323191 1  B4              Rx   d 8 00 00 00 00 00 00 00 BC  Length = 239894 BitCount = 124 ID = 180
   0.323442 1  230             Rx   d 7 00 06 00 00 00 00 3F  Length = 219894 BitCount = 114 ID = 560
   0.323854 1  22              Rx   d 8 01 F5 01 FA 00 00 00 1B  Length = 235894 BitCount = 122 ID = 34
   0.324076 1  23              Rx   d 7 01 FE 02 02 00 00 2D  Length = 213894 BitCount = 111 ID = 35
   0.325082 1  38              Rx   d 7 80 00 08 00 00 00 C7  Length = 219894 BitCount = 114 ID = 56
   0.325330 1  244             Rx   d 8 10 00 00 00 00 00 00 5E  Length = 239894 BitCount = 124 ID = 580
   0.325520 1  3B              Rx   d 5 00 00 00 E8 28  Length = 181898 BitCount = 95 ID = 59
   0.325823 1  4C6             Rx   d 8 07 00 01 00 00 00 00 00  Length = 239894 BitCount = 124 ID = 1222
   0.325989 1  39              Rx   d 4 19 00 0B 61  Length = 157898 BitCount = 83 ID = 57
   0.327071 1  3A              Rx   d 7 00 00 00 00 04 06 4B  Length = 217894 BitCount = 113 ID = 58
   0.327279 1  348             Rx   d 6 00 01 00 00 00 52  Length = 199898 BitCount = 104 ID = 840
   0.328359 1  30              Rx   d 8 04 00 00 00 00 20 00 5C  Length = 237894 BitCount = 123 ID = 48
   0.328566 1  B3              Rx   d 6 00 00 00 00 11 CA  Length = 197898 BitCount = 103 ID = 179
   0.329058 1  3E              Rx   d 3 16 D0 27  Length = 141898 BitCount = 75 ID = 62
   0.331186 1  120             Rx   d 8 00 00 00 00 10 10 00 49  Length = 235894 BitCount = 122 ID = 288
   0.333256 1  38              Rx   d 7 80 00 08 00 00 00 C7  Length = 219894 BitCount = 114 ID = 56
   0.333446 1  3B              Rx   d 5 00 00 00 E8 28  Length = 181898 BitCount = 95 ID = 59
   0.333636 1  3CA             Rx   d 5 00 20 00 00 F2  Length = 181898 BitCount = 95 ID = 970
   0.333884 1  262             Rx   d 4 00 01 00 69  Length = 159660 BitCount = 84 ID = 610
   0.334050 1  39              Rx   d 4 19 00 0B 61  Length = 157898 BitCount = 83 ID = 57
   0.334269 1  20              Rx   d 3 00 00 07  Length = 147898 BitCount = 78 ID = 32
   0.334515 1  30              Rx   d 8 04 00 00 00 00 20 00 5C  Length = 237894 BitCount = 123 ID = 48
   0.334721 1  B1              Rx   d 6 00 00 00 00 11 C8  Length = 197898 BitCount = 103 ID = 177
   0.334953 1  25              Rx   d 8 0F 3E 0F F5 78 78 78 E6  Length = 223894 BitCount = 116 ID = 37
   0.335201 1  B4              Rx   d 8 00 00 00 00 00 00 00 BC  Length = 239894 BitCount = 124 ID = 180
   0.335428 1  3A              Rx   d 7 00 00 00 00 04 06 4B  Length = 217894 BitCount = 113 ID = 58
   0.335636 1  3C8             Rx   d 6 00 34 00 00 00 05  Length = 199898 BitCount = 104 ID = 968
   0.335880 1  22              Rx   d 8 01 F5 01 FA 00 00 00 1B  Length = 235894 BitCount = 122 ID = 34
   0.336102 1  23              Rx   d 7 01 FE 02 02 00 00 2D  Length = 213894 BitCount = 111 ID = 35
   0.337250 1  3E              Rx   d 3 16 D0 27  Length = 141898 BitCount = 75 ID = 62
   0.340380 1  30              Rx   d 8 04 00 00 00 00 20 00 5C  Length = 237894 BitCount = 123 ID = 48
   0.340587 1  B3              Rx   d 6 00 00 00 00 11 CA  Length = 197898 BitCount = 103 ID = 179
   0.341327 1  3B              Rx   d 5 00 00 00 E8 28  Length = 181898 BitCount = 95 ID = 59
   0.341555 1  38              Rx   d 7 80 00 08 00 00 00 C7  Length = 219894 BitCount = 114 ID = 56
   0.342151 1  39              Rx   d 4 19 00 0B 61  Length = 157898 BitCount = 83 ID = 57
   0.343451 1  3A              Rx   d 7 00 00 00 00 04 06 4B  Length = 217894 BitCount = 113 ID = 58
   0.345214 1  5CC             Rx   d 3 24 01 A3  Length = 137898 BitCount = 73 ID = 1484
   0.345442 1  3E              Rx   d 3 16 D0 27  Length = 141898 BitCount = 75 ID = 62
   0.346290 1  20              Rx   d 3 00 00 07  Length = 147898 BitCount = 78 ID = 32
   0.346536 1  30              Rx   d 8 04 00 00 00 00 20 00 5C  Length = 237894 BitCount = 123 ID = 48
   0.346743 1  B1              Rx   d 6 00 00 00 00 11 C8  Length = 197898 BitCount = 103 ID = 177
   0.346975 1  25              Rx   d 8 0F 3E 0F F5 78 78 78 E6  Length = 223894 BitCount = 116 ID = 37
   0.347223 1  B4              Rx   d 8 00 00 00 00 00 00 00 BC  Length = 239894 BitCount = 124 ID = 180
   0.347473 1  230             Rx   d 7 00 06 00 00 00 00 3F  Length = 219894 BitCount = 114 ID = 560
   0.347717 1  120             Rx   d 8 00 00 00 00 10 10 00 49  Length = 235894 BitCount = 122 ID = 288
   0.347962 1  22              Rx   d 8 01 F6 01 FB 00 00 00 1D  Length = 235894 BitCount = 122 ID = 34
   0.348184 1  23              Rx   d 7 01 FE 02 02 00 00 2D  Length = 213894 BitCount = 111 ID = 35
   0.349330 1  3B              Rx   d 5 00 00 00 E8 28  Length = 181898 BitCount = 95 ID = 59
   0.349664 1  38              Rx   d 7 80 00 08 00 00 00 C7  Length = 219894 BitCount = 114 ID = 56
   0.349912 1  244             Rx   d 8 10 00 00 00 00 00 00 5E  Length = 239894 BitCount = 124 ID = 580
   0.350345 1  39              Rx   d 4 19 00 0B 61  Length = 157898 BitCount = 83 ID = 57
   0.351643 1  3A              Rx   d 7 00 00 00 00 04 06 4B  Length = 217894 BitCount = 113 ID = 58
   0.352453 1  30              Rx   d 8 04 00 00 00 00 20 00 5C  Length = 237894 BitCount = 123 ID = 48
   0.352659 1  B3              Rx   d 6 00 00 00 00 11 CA  Length = 197898 BitCount = 103 ID = 179
   0.353669 1  3E              Rx   d 3 16 D0 27  Length = 141898 BitCount = 75 ID = 62
   0.353837 1  262             Rx   d 4 00 01 00 69  Length = 159660 BitCount = 84 ID = 610
   0.357334 1  3B              Rx   d 5 00 00 00 E8 28  Length = 181898 BitCount = 95 ID = 59
   0.357828 1  38              Rx   d 7 80 00 08 00 00 00 C7  Length = 219894 BitCount = 114 ID = 56
   0.358370 1  20              Rx   d 3 00 00 07  Length = 147898 BitCount = 78 ID = 32
   0.358617 1  30              Rx   d 8 04 00 00 00 00 20 00 5C  Length = 237894 BitCount = 123 ID = 48
   0.358783 1  39              Rx   d 4 19 00 0B 61  Length = 157898 BitCount = 83 ID = 57
   0.359017 1  25              Rx   d 8 0F 3E 0F F5 79 79 79 E9  Length = 225894 BitCount = 117 ID = 37
   0.359223 1  B1              Rx   d 6 00 00 00 00 11 C8  Length = 197898 BitCount = 103 ID = 177
   0.359472 1  B4              Rx   d 8 00 00 00 00 00 00 00 BC  Length = 239894 BitCount = 124 ID = 180
   0.359850 1  3A              Rx   d 7 00 00 00 00 04 06 4B  Length = 217894 BitCount = 113 ID = 58
   0.360094 1  22              Rx   d 8 01 F6 01 FB 00 00 00 1D  Length = 235894 BitCount = 122 ID = 34
   0.360316 1  23              Rx   d 7 01 FE 02 02 00 00 2D  Length = 213894 BitCount = 111 ID = 35
   0.361824 1  3E              Rx   d 3 16 D0 27  Length = 141898 BitCount = 75 ID = 62
   0.363922 1  120             Rx   d 8 00 00 00 00 10 10 00 49  Length = 235894 BitCount = 122 ID = 288
   0.364500 1  30              Rx   d 8 04 00 00 00 00 20 00 5C  Length = 237894 BitCount = 123 ID = 48
   0.364707 1  B3              Rx   d 6 00 00 00 00 11 CA  Length = 197898 BitCount = 103 ID = 179
   0.365347 1  3B              Rx   d 5 00 00 00 E8 28  Length = 181898 BitCount = 95 ID = 59
   0.366051 1  38              Rx   d 7 80 00 08 00 00 00 C7  Length = 219894 BitCount = 114 ID = 56
   0.366729 1  39              Rx   d 4 19 00 0B 61  Length = 157898 BitCount = 83 ID = 57
   0.368015 1  3A              Rx   d 7 00 00 00 00 04 06 4B  Length = 217894 BitCount = 113 ID = 58
   0.368223 1  348             Rx   d 6 00 01 00 00 00 52  Length = 199898 BitCount = 104 ID = 840
   0.370018 1  3E              Rx   d 3 16 D0 27  Length = 141898 BitCount = 75 ID = 62
   0.370410 1  20              Rx   d 3 00 00 07  Length = 147898 BitCount = 78 ID = 32
   0.370656 1  30              Rx   d 8 04 00 00 00 00 20 00 5C  Length = 237894 BitCount = 123 ID = 48
   0.370862 1  B1              Rx   d 6 00 00 00 00 11 C8  Length = 197898 BitCount = 103 ID = 177
   0.371095 1  25              Rx   d 8 0F 3E 0F F5 78 78 78 E6  Length = 223894 BitCount = 116 ID = 37
   0.371343 1  B4              Rx   d 8 00 00 00 00 00 00 00 BC  Length = 239894 BitCount = 124 ID = 180
   0.371593 1  230             Rx   d 7 00 06 00 00 00 00 3F  Length = 219894 BitCount = 114 ID = 560
   0.372005 1  22              Rx   d 8 01 F6 01 FA 00 00 00 1C  Length = 235894 BitCount = 122 ID = 34
   0.372227 1  23              Rx   d 7 01 FE 02 02 00 00 2D  Length = 213894 BitCount = 111 ID = 35
   0.373370 1  3B              Rx   d 5 00 00 00 E8 28  Length = 181898 BitCount = 95 ID = 59
   0.373608 1  3C9             Rx   d 8 03 FF 25 02 AB 03 34 DF  Length = 225894 BitCount = 117 ID = 969
   0.373898 1  262             Rx   d 4 00 01 00 69  Length = 159660 BitCount = 84 ID = 610
   0.374258 1  38              Rx   d 7 80 00 08 00 00 00 C7  Length = 219894 BitCount = 114 ID = 56
   0.374506 1  244             Rx   d 8 10 00 00 00 00 00 00 5E  Length = 239894 BitCount = 124 ID = 580
   0.374922 1  39              Rx   d 4 19 00 0B 61  Length = 157898 BitCount = 83 ID = 57
   0.376205 1  3A              Rx   d 7 00 00 00 00 04 06 4B  Length = 217894 BitCount = 113 ID = 58
   0.376529 1  30              Rx   d 8 04 00 00 00 00 20 00 5C  Length = 237894 BitCount = 123 ID = 48
   0.376735 1  B3              Rx   d 6 00 00 00 00 11 CA  Length = 197898 BitCount = 103 ID = 179
   0.378207 1  3E              Rx   d 3 16 D0 27  Length = 141898 BitCount = 75 ID = 62
   0.380333 1  120             Rx   d 8 00 00 00 00 10 10 00 49  Length = 235894 BitCount = 122 ID = 288
   0.381393 1  3B              Rx   d 5 00 00 00 E8 28  Length = 181898 BitCount = 95 ID = 59
   0.381614 1  3CB             Rx   d 7 62 62 00 7E 10 0E 35  Length = 207898 BitCount = 108 ID = 971
   0.382426 1  38              Rx   d 7 80 00 08 00 00 00 C7  Length = 219894 BitCount = 114 ID = 56
   0.382582 1  20              Rx   d 3 00 00 07  Length = 147898 BitCount = 78 ID = 32
   0.382828 1  30              Rx   d 8 04 00 00 00 00 20 00 5C  Length = 237894 BitCount = 123 ID = 48
   0.383035 1  B1              Rx   d 6 00 00 00 00 11 C8  Length = 197898 BitCount = 103 ID = 177
   0.383267 1  25              Rx   d 8 0F 3E 0F F5 7A 7A 7A EC  Length = 223894 BitCount = 116 ID = 37
   0.383433 1  39              Rx   d 4 19 00 0B 61  Length = 157898 BitCount = 83 ID = 57
   0.383681 1  B4              Rx   d 8 00 00 00 00 00 00 00 BC  Length = 239894 BitCount = 124 ID = 180
   0.384177 1  22              Rx   d 8 01 F6 01 FA 00 00 00 1C  Length = 235894 BitCount = 122 ID = 34
   0.384400 1  23              Rx   d 7 01 FE 02 02 00 00 2D  Length = 213894 BitCount = 111 ID = 35
   0.384626 1  3A              Rx   d 7 00 00 00 00 04 06 4B  Length = 217894 BitCount = 113 ID = 58
   0.386398 1  3E              Rx   d 3 16 D0 27  Length = 141898 BitCount = 75 ID = 62
   0.388620 1  30              Rx   d 8 04 00 00 00 00 20 00 5C  Length = 237894 BitCount = 123 ID = 48
   0.388826 1  B3              Rx   d 6 00 00 00 00 11 CA  Length = 197898 BitCount = 103 ID = 179
   0.389376 1  3B              Rx   d 5 00 00 00 E8 28  Length = 181898 BitCount = 95 ID = 59
   0.389565 1  3CD             Rx   d 5 00 00 00 E7 BC  Length = 177898 BitCount = 93 ID = 973
   0.390655 1  38              Rx   d 7 80 00 08 00 00 00 C7  Length = 219894 BitCount = 114 ID = 56
   0.391309 1  39              Rx   d 4 19 00 0B 61  Length = 157898 BitCount = 83 ID = 57
   0.392595 1  3A              Rx   d 7 00 00 00 00 04 06 4B  Length = 217894 BitCount = 113 ID = 58
   0.393534 1  262             Rx   d 4 00 01 00 69  Length = 159660 BitCount = 84 ID = 610
   0.394082 1  5ED             Rx   d 6 67 00 00 FF 00 00  Length = 197898 BitCount = 103 ID = 1517
   0.394542 1  20              Rx   d 3 00 00 07  Length = 147898 BitCount = 78 ID = 32
   0.394789 1  30              Rx   d 8 04 00 00 00 00 20 00 5C  Length = 237894 BitCount = 123 ID = 48
   0.394939 1  3E              Rx   d 3 16 D0 27  Length = 141898 BitCount = 75 ID = 62
   0.395173 1  25              Rx   d 8 0F 3E 0F F5 77 77 77 E3  Length = 225894 BitCount = 117 ID = 37
   0.395379 1  B1              Rx   d 6 00 00 00 00 11 C8  Length = 197898 BitCount = 103 ID = 177
   0.395628 1  B4              Rx   d 8 00 00 00 00 00 00 00 BC  Length = 239894 BitCount = 124 ID = 180
   0.395878 1  230             Rx   d 7 00 06 00 00 00 00 3F  Length = 219894 BitCount = 114 ID = 560
   0.396140 1  22              Rx   d 8 01 F5 01 FA 00 00 00 1B  Length = 235894 BitCount = 122 ID = 34
   0.396362 1  23              Rx   d 7 01 FE 02 02 00 00 2D  Length = 213894 BitCount = 111 ID = 35
   0.396768 1  120             Rx   d 8 00 00 00 00 10 10 00 49  Length = 235894 BitCount = 122 ID = 288
   0.397398 1  3B              Rx   d 5 00 00 00 E8 28  Length = 181898 BitCount = 95 ID = 59
   0.398787 1  38              Rx   d 7 80 00 08 00 00 00 C7  Length = 219894 BitCount = 114 ID = 56
   0.399035 1  244             Rx   d 8 10 00 00 00 00 00 00 5E  Length = 239894 BitCount = 124 ID = 580
   0.399503 1  39              Rx   d 4 19 00 0B 61  Length = 157898 BitCount = 83 ID = 57
   0.400583 1  3C8             Rx   d 6 00 34 00 00 00 05  Length = 199898 BitCount = 104 ID = 968
   0.400830 1  30              Rx   d 8 04 00 00 00 00 20 00 5C  Length = 237894 BitCount = 123 ID = 48
   0.401056 1  3A              Rx   d 7 00 00 00 00 04 06 4B  Length = 217894 BitCount = 113 ID = 58
   0.401262 1  B3              Rx   d 6 00 00 00 00 11 CA  Length = 197898 BitCount = 103 ID = 179
   0.402832 1  3E              Rx   d 3 16 D0 27  Length = 141898 BitCount = 75 ID = 62
   0.405381 1  3B              Rx   d 5 00 00 00 E8 28  Length = 181898 BitCount = 95 ID = 59
   0.406567 1  20              Rx   d 3 00 00 07  Length = 147898 BitCount = 78 ID = 32
   0.406813 1  30              Rx   d 8 04 00 00 00 00 20 00 5C  Length = 237894 BitCount = 123 ID = 48
   0.407041 1  38              Rx   d 7 80 00 08 00 00 00 C7  Length = 219894 BitCount = 114 ID = 56
   0.407273 1  25              Rx   d 8 0F 3E 0F F5 78 78 78 E6  Length = 223894 BitCount = 116 ID = 37
   0.407480 1  B1              Rx   d 6 00 00 00 00 11 C8  Length = 197898 BitCount = 103 ID = 177
   0.407728 1  B4              Rx   d 8 00 00 00 00 00 00 00 BC  Length = 239894 BitCount = 124 ID = 180
   0.407894 1  39              Rx   d 4 19 00 0B 61  Length = 157898 BitCount = 83 ID = 57
   0.408160 1  22              Rx   d 8 01 F5 01 FA 00 00 00 1B  Length = 235894 BitCount = 122 ID = 34
   0.408382 1  23              Rx   d 7 01 FE 02 02 00 00 2D  Length = 213894 BitCount = 111 ID = 35
   0.409002 1  3A              Rx   d 7 00 00 00 00 04 06 4B  Length = 217894 BitCount = 113 ID = 58
   0.409211 1  348             Rx   d 6 00 01 00 00 00 52  Length = 199898 BitCount = 104 ID = 840
   0.410797 1  3CF             Rx   d 5 10 14 20 00 1B  Length = 173898 BitCount = 91 ID = 975
   0.410973 1  3E              Rx   d 3 16 D0 27  Length = 141898 BitCount = 75 ID = 62
   0.412685 1  30              Rx   d 8 04 00 00 00 00 20 00 5C  Length = 237894 BitCount = 123 ID = 48
   0.412892 1  B3              Rx   d 6 00 00 00 00 11 CA  Length = 197898 BitCount = 103 ID = 179
   0.413136 1  120             Rx   d 8 00 00 00 00 10 10 00 49  Length = 235894 BitCount = 122 ID = 288
   0.413402 1  3B              Rx   d 5 00 00 00 E8 28  Length = 181898 BitCount = 95 ID = 59
   0.413814 1  262             Rx   d 4 00 01 00 69  Length = 159660 BitCount = 84 ID = 610
   0.415200 1  38              Rx   d 7 80 00 08 00 00 00 C7  Length = 219894 BitCount = 114 ID = 56
   0.415888 1  39              Rx   d 4 19 00 0B 61  Length = 157898 BitCount = 83 ID = 57
   0.417174 1  3A              Rx   d 7 00 00 00 00 04 07 4C  Length = 219894 BitCount = 114 ID = 58
   0.418634 1  20              Rx   d 3 00 00 07  Length = 147898 BitCount = 78 ID = 32
   0.418880 1  30              Rx   d 8 04 00 00 00 00 20 00 5C  Length = 237894 BitCount = 123 ID = 48
   0.419087 1  B1              Rx   d 6 00 00 00 00 11 C8  Length = 197898 BitCount = 103 ID = 177
   0.419321 1  25              Rx   d 8 0F 3E 0F F5 79 79 79 E9  Length = 225894 BitCount = 117 ID = 37
   0.419471 1  3E              Rx   d 3 16 D0 27  Length = 141898 BitCount = 75 ID = 62
   0.419719 1  B4              Rx   d 8 00 00 00 00 00 00 00 BC  Length = 239894 BitCount = 124 ID = 180
   0.419972 1  230             Rx   d 7 00 06 00 00 00 00 3F  Length = 219894 BitCount = 114 ID = 560
   0.420228 1  22              Rx   d 8 01 F5 01 FB 00 00 00 1C  Length = 239894 BitCount = 124 ID = 34
   0.420450 1  23              Rx   d 7 01 FE 02 02 00 00 2D  Length = 213894 BitCount = 111 ID = 35
   0.421384 1  3B              Rx   d 5 00 00 00 E8 28  Length = 181898 BitCount = 95 ID = 59
   0.423372 1  38              Rx   d 7 80 00 08 00 00 00 C7  Length = 219894 BitCount = 114 ID = 56
   0.423621 1  244             Rx   d 8 10 00 00 00 00 00 00 5E  Length = 239894 BitCount = 124 ID = 580
   0.424083 1  39              Rx   d 4 19 00 0B 61  Length = 157898 BitCount = 83 ID = 57
   0.424821 1  30              Rx   d 8 04 00 00 00 00 20 00 5C  Length = 237894 BitCount = 123 ID = 48
   0.425027 1  B3              Rx   d 6 00 00 00 00 11 CA  Length = 197898 BitCount = 103 ID = 179
   0.425215 1  591             Rx   d 4 25 A0 1F 06  Length = 155898 BitCount = 82 ID = 1425
   0.425442 1  3A              Rx   d 7 00 00 00 00 04 06 4B  Length = 217894 BitCount = 113 ID = 58
   0.427358 1  3E              Rx   d 3 16 D0 27  Length = 141898 BitCount = 75 ID = 62
   0.429388 1  3B              Rx   d 5 00 00 00 E8 28  Length = 181898 BitCount = 95 ID = 59
   0.429632 1  120             Rx   d 8 00 00 00 00 10 10 00 49  Length = 235894 BitCount = 122 ID = 288
   0.430697 1  20              Rx   d 3 00 00 07  Length = 147898 BitCount = 78 ID = 32
   0.430943 1  30              Rx   d 8 04 00 00 00 00 20 00 5C  Length = 237894 BitCount = 123 ID = 48
   0.431149 1  B1              Rx   d 6 00 00 00 00 11 C8  Length = 197898 BitCount = 103 ID = 177
   0.431381 1  25              Rx   d 8 0F 3E 0F F5 78 78 78 E6  Length = 223894 BitCount = 116 ID = 37
   0.431610 1  38              Rx   d 7 80 00 08 00 00 00 C7  Length = 219894 BitCount = 114 ID = 56
   0.431858 1  B4              Rx   d 8 00 00 00 00 00 00 00 BC  Length = 239894 BitCount = 124 ID = 180
   0.432284 1  22              Rx   d 8 01 F5 01 FA 00 00 00 1B  Length = 235894 BitCount = 122 ID = 34
   0.432506 1  23              Rx   d 7 01 FE 02 02 00 00 2D  Length = 213894 BitCount = 111 ID = 35
   0.432672 1  39              Rx   d 4 19 00 0B 61  Length = 157898 BitCount = 83 ID = 57
   0.433544 1  3A              Rx   d 7 00 00 00 00 04 06 4B  Length = 217894 BitCount = 113 ID = 58
   0.433735 1  3CA             Rx   d 5 00 20 00 00 F2  Length = 181898 BitCount = 95 ID = 970
   0.433902 1  262             Rx   d 4 00 01 00 69  Length = 159660 BitCount = 84 ID = 610
   0.435565 1  3E              Rx   d 3 16 D0 27  Length = 141898 BitCount = 75 ID = 62
   0.436807 1  30              Rx   d 8 04 00 00 00 00 20 00 5C  Length = 237894 BitCount = 123 ID = 48
   0.437013 1  B3              Rx   d 6 00 00 00 00 11 CA  Length = 197898 BitCount = 103 ID = 179
   0.437389 1  3B              Rx   d 5 00 00 00 E8 28  Length = 181898 BitCount = 95 ID = 59
   0.439739 1  38              Rx   d 7 80 00 08 00 00 00 C7  Length = 219894 BitCount = 114 ID = 56
   0.440467 1  39              Rx   d 4 19 00 0B 61  Length = 157898 BitCount = 83 ID = 57
   0.441734 1  3A              Rx   d 7 00 00 00 00 04 06 4B  Length = 217894 BitCount = 113 ID = 58
   0.442714 1  20              Rx   d 3 00 00 07  Length = 147898 BitCount = 78 ID = 32
   0.442960 1  30              Rx   d 8 04 00 00 00 00 20 00 5C  Length = 237894 BitCount = 123 ID = 48
   0.443166 1  B1              Rx   d 6 00 00 00 00 11 C8  Length = 197898 BitCount = 103 ID = 177
   0.443400 1  25              Rx   d 8 0F 3E 0F F5 79 79 79 E9  Length = 225894 BitCount = 117 ID = 37
   0.443649 1  B4              Rx   d 8 00 00 00 00 00 00 00 BC  Length = 239894 BitCount = 124 ID = 180
   0.443799 1  3E              Rx   d 3 16 D0 27  Length = 141898 BitCount = 75 ID = 62
   0.444027 1  230             Rx   d 7 00 06 00 00 00 00 3F  Length = 219894 BitCount = 114 ID = 560
   0.444301 1  22              Rx   d 8 01 F6 01 FA 00 00 00 1C  Length = 235894 BitCount = 122 ID = 34
   0.444523 1  23              Rx   d 7 01 FE 02 02 00 00 2D  Length = 213894 BitCount = 111 ID = 35
   0.445394 1  3B              Rx   d 5 00 00 00 E8 28  Length = 181898 BitCount = 95 ID = 59
   0.445898 1  120             Rx   d 8 00 00 00 00 10 10 00 49  Length = 235894 BitCount = 122 ID = 288
   0.447930 1  38              Rx   d 7 80 00 08 00 00 00 C7  Length = 219894 BitCount = 114 ID = 56
