date Sat Dec 5 02:51:50.777 pm 2015
base hex  timestamps absolute
internal events logged
// version 8.5.0
Begin Triggerblock Sat Dec 5 02:51:50.777 pm 2015
   0.000000 Start of measurement
   0.002385 1  120             Rx   d 8 00 00 00 00 10 10 00 49  Length = 235894 BitCount = 122 ID = 288
   0.004025 1  30              Rx   d 8 04 00 00 00 00 20 00 5C  Length = 237894 BitCount = 123 ID = 48
   0.004231 1  B3              Rx   d 6 00 00 00 00 11 CA  Length = 197898 BitCount = 103 ID = 179
   0.004459 1  38              Rx   d 7 80 00 08 00 00 00 C7  Length = 219894 BitCount = 114 ID = 56
   0.006447 1  3A              Rx   d 7 00 00 00 00 04 06 4B  Length = 217894 BitCount = 113 ID = 58
   0.006656 1  348             Rx   d 6 00 01 00 00 00 52  Length = 199898 BitCount = 104 ID = 840
   0.008450 1  3E              Rx   d 3 16 D0 27  Length = 141898 BitCount = 75 ID = 62
   0.008616 1  39              Rx   d 4 1A 00 0B 62  Length = 157898 BitCount = 83 ID = 57
   0.009132 1  3B              Rx   d 5 00 00 00 E9 29  Length = 177898 BitCount = 93 ID = 59
   0.009371 1  3C9             Rx   d 8 03 FF 25 02 AB 03 34 DF  Length = 225894 BitCount = 117 ID = 969
   0.009951 1  20              Rx   d 3 00 00 07  Length = 147898 BitCount = 78 ID = 32
   0.010237 1  30              Rx   d 8 04 00 00 00 00 20 00 5C  Length = 237894 BitCount = 123 ID = 48
   0.010443 1  B1              Rx   d 6 00 00 00 00 11 C8  Length = 197898 BitCount = 103 ID = 177
   0.010678 1  25              Rx   d 8 0F 3E 0F F5 79 79 79 E9  Length = 225894 BitCount = 117 ID = 37
   0.010926 1  B4              Rx   d 8 00 00 00 00 00 00 00 BC  Length = 239894 BitCount = 124 ID = 180
   0.011192 1  230             Rx   d 7 00 06 00 00 00 00 3F  Length = 219894 BitCount = 114 ID = 560
   0.011538 1  22              Rx   d 8 01 F6 01 FA 00 00 00 1C  Length = 235894 BitCount = 122 ID = 34
   0.011760 1  23              Rx   d 7 01 FE 02 02 00 00 2D  Length = 213894 BitCount = 111 ID = 35
   0.012660 1  38              Rx   d 7 80 00 08 00 00 00 C7  Length = 219894 BitCount = 114 ID = 56
   0.014622 1  3A              Rx   d 7 00 00 00 00 04 06 4B  Length = 217894 BitCount = 113 ID = 58
   0.016253 1  30              Rx   d 8 04 00 00 00 00 20 00 5C  Length = 237894 BitCount = 123 ID = 48
   0.016459 1  B3              Rx   d 6 00 00 00 00 11 CA  Length = 197898 BitCount = 103 ID = 179
   0.016657 1  3E              Rx   d 3 16 D0 27  Length = 141898 BitCount = 75 ID = 62
   0.016823 1  39              Rx   d 4 1A 00 0B 62  Length = 157898 BitCount = 83 ID = 57
   0.017136 1  3B              Rx   d 5 00 00 00 E9 29  Length = 177898 BitCount = 93 ID = 59
   0.017362 1  3CB             Rx   d 7 5F 5F 00 7E 0F 0D 2D  Length = 213894 BitCount = 111 ID = 971
   0.018800 1  120             Rx   d 8 00 00 00 00 10 10 00 49  Length = 235894 BitCount = 122 ID = 288
   0.019361 1  262             Rx   d 4 00 01 00 69  Length = 159660 BitCount = 84 ID = 610
   0.020837 1  38              Rx   d 7 80 00 08 00 00 00 C7  Length = 219894 BitCount = 114 ID = 56
   0.021086 1  244             Rx   d 8 10 00 00 00 00 00 00 5E  Length = 239894 BitCount = 124 ID = 580
   0.022178 1  20              Rx   d 3 00 00 07  Length = 147898 BitCount = 78 ID = 32
   0.022424 1  30              Rx   d 8 04 00 00 00 00 20 00 5C  Length = 237894 BitCount = 123 ID = 48
   0.022630 1  B1              Rx   d 6 00 00 00 00 11 C8  Length = 197898 BitCount = 103 ID = 177
   0.022863 1  25              Rx   d 8 0F 3E 0F F5 7A 7A 7A EC  Length = 223894 BitCount = 116 ID = 37
   0.023089 1  3A              Rx   d 7 00 00 00 00 04 06 4B  Length = 217894 BitCount = 113 ID = 58
   0.023337 1  B4              Rx   d 8 00 00 00 00 00 00 00 BC  Length = 239894 BitCount = 124 ID = 180
   0.023767 1  22              Rx   d 8 01 F6 01 FA 00 00 00 1C  Length = 235894 BitCount = 122 ID = 34
   0.023989 1  23              Rx   d 7 01 FE 02 02 00 00 2D  Length = 213894 BitCount = 111 ID = 35
   0.024831 1  3E              Rx   d 3 16 D0 27  Length = 141898 BitCount = 75 ID = 62
   0.024997 1  39              Rx   d 4 1A 00 0B 62  Length = 157898 BitCount = 83 ID = 57
   0.025188 1  3B              Rx   d 5 00 00 00 E8 28  Length = 181898 BitCount = 95 ID = 59
   0.025372 1  3CD             Rx   d 5 00 00 00 E8 BD  Length = 173898 BitCount = 91 ID = 973
   0.028279 CAN 1 Status:chip status error active
   0.028279 CAN 2 Status:chip status error active
   0.028344 1  30              Rx   d 8 04 00 00 00 00 20 00 5C  Length = 237894 BitCount = 123 ID = 48
   0.028550 1  B3              Rx   d 6 00 00 00 00 11 CA  Length = 197898 BitCount = 103 ID = 179
   0.028739 1  591             Rx   d 4 25 A0 1F 06  Length = 155898 BitCount = 82 ID = 1425
   0.029055 1  38              Rx   d 7 80 00 08 00 00 00 C7  Length = 219894 BitCount = 114 ID = 56
   0.031005 1  3A              Rx   d 7 00 00 00 00 04 06 4B  Length = 217894 BitCount = 113 ID = 58
   0.033023 1  3E              Rx   d 3 16 D0 27  Length = 141898 BitCount = 75 ID = 62
   0.033189 1  39              Rx   d 4 1A 00 0B 62  Length = 157898 BitCount = 83 ID = 57
   0.033379 1  3B              Rx   d 5 00 00 00 E8 28  Length = 181898 BitCount = 95 ID = 59
   0.034228 1  3C8             Rx   d 6 00 34 00 00 00 05  Length = 199898 BitCount = 104 ID = 968
   0.034384 1  20              Rx   d 3 00 00 07  Length = 147898 BitCount = 78 ID = 32
   0.034630 1  30              Rx   d 8 04 00 00 00 00 20 00 5C  Length = 237894 BitCount = 123 ID = 48
   0.034836 1  B1              Rx   d 6 00 00 00 00 11 C8  Length = 197898 BitCount = 103 ID = 177
   0.035069 1  25              Rx   d 8 0F 3E 0F F5 7A 7A 7A EC  Length = 223894 BitCount = 116 ID = 37
   0.035317 1  B4              Rx   d 8 00 00 00 00 00 00 00 BC  Length = 239894 BitCount = 124 ID = 180
   0.035561 1  120             Rx   d 8 00 00 00 00 10 10 00 49  Length = 235894 BitCount = 122 ID = 288
   0.035789 1  230             Rx   d 7 00 06 00 00 00 00 3F  Length = 219894 BitCount = 114 ID = 560
   0.036033 1  22              Rx   d 8 01 F5 01 FA 00 00 00 1B  Length = 235894 BitCount = 122 ID = 34
   0.036256 1  23              Rx   d 7 01 FE 02 02 00 00 2D  Length = 213894 BitCount = 111 ID = 35
   0.037218 1  38              Rx   d 7 80 00 08 00 00 00 C7  Length = 219894 BitCount = 114 ID = 56
   0.039212 1  3A              Rx   d 7 00 00 00 00 04 06 4B  Length = 217894 BitCount = 113 ID = 58
   0.039439 1  262             Rx   d 4 00 01 00 69  Length = 159660 BitCount = 84 ID = 610
   0.040306 1  5CC             Rx   d 3 24 01 A6  Length = 137898 BitCount = 73 ID = 1484
   0.040552 1  30              Rx   d 8 04 00 00 00 00 20 00 5C  Length = 237894 BitCount = 123 ID = 48
   0.040758 1  B3              Rx   d 6 00 00 00 00 11 CA  Length = 197898 BitCount = 103 ID = 179
   0.041126 1  3B              Rx   d 5 00 00 00 E8 28  Length = 181898 BitCount = 95 ID = 59
   0.041277 1  3E              Rx   d 3 16 D0 27  Length = 141898 BitCount = 75 ID = 62
   0.041443 1  39              Rx   d 4 1A 00 0B 62  Length = 157898 BitCount = 83 ID = 57
   0.045397 1  38              Rx   d 7 80 00 08 00 00 00 C7  Length = 219894 BitCount = 114 ID = 56
   0.045645 1  244             Rx   d 8 10 00 00 00 00 00 00 5E  Length = 239894 BitCount = 124 ID = 580
   0.046433 1  20              Rx   d 3 00 00 07  Length = 147898 BitCount = 78 ID = 32
   0.046679 1  30              Rx   d 8 04 00 00 00 00 20 00 5C  Length = 237894 BitCount = 123 ID = 48
   0.046886 1  B1              Rx   d 6 00 00 00 00 11 C8  Length = 197898 BitCount = 103 ID = 177
   0.047118 1  25              Rx   d 8 0F 3E 0F F5 78 78 78 E6  Length = 223894 BitCount = 116 ID = 37
   0.047366 1  B4              Rx   d 8 00 00 00 00 00 00 00 BC  Length = 239894 BitCount = 124 ID = 180
   0.047592 1  3A              Rx   d 7 00 00 00 00 04 06 4B  Length = 217894 BitCount = 113 ID = 58
   0.047801 1  348             Rx   d 6 00 01 00 00 00 52  Length = 199898 BitCount = 104 ID = 840
   0.048045 1  22              Rx   d 8 01 F6 01 FA 00 00 00 1C  Length = 235894 BitCount = 122 ID = 34
   0.048267 1  23              Rx   d 7 01 FE 02 02 00 00 2D  Length = 213894 BitCount = 111 ID = 35
   0.049123 1  3B              Rx   d 5 00 00 00 E9 29  Length = 177898 BitCount = 93 ID = 59
   0.049431 1  3E              Rx   d 3 16 D0 27  Length = 141898 BitCount = 75 ID = 62
   0.049597 1  39              Rx   d 4 1A 00 0B 62  Length = 157898 BitCount = 83 ID = 57
   0.051516 1  120             Rx   d 8 00 00 00 00 10 10 00 49  Length = 235894 BitCount = 122 ID = 288
   0.052570 1  30              Rx   d 8 04 00 00 00 00 20 00 5C  Length = 237894 BitCount = 123 ID = 48
   0.052776 1  B3              Rx   d 6 00 00 00 00 11 CA  Length = 197898 BitCount = 103 ID = 179
   0.053618 1  38              Rx   d 7 80 00 08 00 00 00 C7  Length = 219894 BitCount = 114 ID = 56
   0.055594 1  3A              Rx   d 7 00 00 00 00 04 06 4B  Length = 217894 BitCount = 113 ID = 58
   0.057127 1  3B              Rx   d 5 00 00 00 E9 29  Length = 177898 BitCount = 93 ID = 59
   0.057597 1  3E              Rx   d 3 16 D0 27  Length = 141898 BitCount = 75 ID = 62
   0.057763 1  39              Rx   d 4 1A 00 0B 62  Length = 157898 BitCount = 83 ID = 57
   0.058571 1  20              Rx   d 3 00 00 07  Length = 147898 BitCount = 78 ID = 32
   0.058818 1  30              Rx   d 8 04 00 00 00 00 20 00 5C  Length = 237894 BitCount = 123 ID = 48
   0.059024 1  B1              Rx   d 6 00 00 00 00 11 C8  Length = 197898 BitCount = 103 ID = 177
   0.059258 1  25              Rx   d 8 0F 3E 0F F5 79 79 79 E9  Length = 225894 BitCount = 117 ID = 37
   0.059506 1  B4              Rx   d 8 00 00 00 00 00 00 00 BC  Length = 239894 BitCount = 124 ID = 180
   0.059674 1  262             Rx   d 4 00 01 00 69  Length = 159660 BitCount = 84 ID = 610
   0.059902 1  230             Rx   d 7 00 06 00 00 00 00 3F  Length = 219894 BitCount = 114 ID = 560
   0.060164 1  22              Rx   d 8 01 F5 01 FA 00 00 00 1B  Length = 235894 BitCount = 122 ID = 34
   0.060387 1  23              Rx   d 7 01 FE 02 02 00 00 2D  Length = 213894 BitCount = 111 ID = 35
   0.061821 1  38              Rx   d 7 80 00 08 00 00 00 C7  Length = 219894 BitCount = 114 ID = 56
   0.063777 1  3A              Rx   d 7 00 00 00 00 04 06 4B  Length = 217894 BitCount = 113 ID = 58
   0.064765 1  30              Rx   d 8 04 00 00 00 00 20 00 5C  Length = 237894 BitCount = 123 ID = 48
   0.064971 1  B3              Rx   d 6 00 00 00 00 11 CA  Length = 197898 BitCount = 103 ID = 179
   0.065161 1  3B              Rx   d 5 00 00 00 E8 28  Length = 181898 BitCount = 95 ID = 59
   0.065792 1  3E              Rx   d 3 16 D0 27  Length = 141898 BitCount = 75 ID = 62
   0.065958 1  39              Rx   d 4 1A 00 0B 62  Length = 157898 BitCount = 83 ID = 57
   0.066148 1  3CA             Rx   d 5 00 20 00 00 F2  Length = 181898 BitCount = 95 ID = 970
   0.067946 1  120             Rx   d 8 00 00 00 00 10 10 00 49  Length = 235894 BitCount = 122 ID = 288
   0.069972 1  38              Rx   d 7 80 00 08 00 00 00 C7  Length = 219894 BitCount = 114 ID = 56
   0.070220 1  244             Rx   d 8 10 00 00 00 00 00 00 5E  Length = 239894 BitCount = 124 ID = 580
   0.070680 1  20              Rx   d 3 00 00 07  Length = 147898 BitCount = 78 ID = 32
   0.070927 1  30              Rx   d 8 04 00 00 00 00 20 00 5C  Length = 237894 BitCount = 123 ID = 48
   0.071133 1  B1              Rx   d 6 00 00 00 00 11 C8  Length = 197898 BitCount = 103 ID = 177
   0.071367 1  25              Rx   d 8 0F 3E 0F F5 79 79 79 E9  Length = 225894 BitCount = 117 ID = 37
   0.071615 1  B4              Rx   d 8 00 00 00 00 00 00 00 BC  Length = 239894 BitCount = 124 ID = 180
   0.071992 1  3A              Rx   d 7 00 00 00 00 04 06 4B  Length = 217894 BitCount = 113 ID = 58
   0.072272 1  22              Rx   d 8 01 F5 01 FA 00 00 00 1B  Length = 235894 BitCount = 122 ID = 34
   0.072494 1  23              Rx   d 7 01 FE 02 02 00 00 2D  Length = 213894 BitCount = 111 ID = 35
   0.073158 1  3B              Rx   d 5 00 00 00 E8 28  Length = 181898 BitCount = 95 ID = 59
   0.073980 1  3E              Rx   d 3 16 D0 27  Length = 141898 BitCount = 75 ID = 62
   0.074146 1  39              Rx   d 4 1A 00 0B 62  Length = 157898 BitCount = 83 ID = 57
   0.076793 1  30              Rx   d 8 04 00 00 00 00 20 00 5C  Length = 237894 BitCount = 123 ID = 48
   0.076999 1  B3              Rx   d 6 00 00 00 00 11 CA  Length = 197898 BitCount = 103 ID = 179
   0.078205 1  38              Rx   d 7 80 00 08 00 00 00 C7  Length = 219894 BitCount = 114 ID = 56
   0.079282 1  262             Rx   d 4 00 01 00 69  Length = 159660 BitCount = 84 ID = 610
   0.080168 1  3A              Rx   d 7 00 00 00 00 04 06 4B  Length = 217894 BitCount = 113 ID = 58
   0.080296 1  52C             Rx   d 2 23 36  Length = 119898 BitCount = 64 ID = 1324
   0.081162 1  3B              Rx   d 5 00 00 00 E8 28  Length = 181898 BitCount = 95 ID = 59
   0.082172 1  3E              Rx   d 3 16 D0 27  Length = 141898 BitCount = 75 ID = 62
   0.082339 1  39              Rx   d 4 1A 00 0B 62  Length = 157898 BitCount = 83 ID = 57
   0.082709 1  20              Rx   d 3 00 00 07  Length = 147898 BitCount = 78 ID = 32
   0.082955 1  30              Rx   d 8 04 00 00 00 00 20 00 5C  Length = 237894 BitCount = 123 ID = 48
   0.083161 1  B1              Rx   d 6 00 00 00 00 11 C8  Length = 197898 BitCount = 103 ID = 177
   0.083394 1  25              Rx   d 8 0F 3E 0F F5 78 78 78 E6  Length = 223894 BitCount = 116 ID = 37
   0.083642 1  B4              Rx   d 8 00 00 00 00 00 00 00 BC  Length = 239894 BitCount = 124 ID = 180
   0.083892 1  230             Rx   d 7 00 06 00 00 00 00 3F  Length = 219894 BitCount = 114 ID = 560
   0.084298 1  22              Rx   d 8 01 F5 01 FA 00 00 00 1B  Length = 235894 BitCount = 122 ID = 34
   0.084520 1  23              Rx   d 7 01 FE 02 02 00 00 2D  Length = 213894 BitCount = 111 ID = 35
   0.084765 1  120             Rx   d 8 00 00 00 00 10 10 00 49  Length = 235894 BitCount = 122 ID = 288
   0.086353 1  38              Rx   d 7 80 00 08 00 00 00 C7  Length = 219894 BitCount = 114 ID = 56
   0.088365 1  3A              Rx   d 7 00 00 00 00 04 06 4B  Length = 217894 BitCount = 113 ID = 58
   0.088573 1  348             Rx   d 6 00 01 00 00 00 52  Length = 199898 BitCount = 104 ID = 840
   0.088823 1  30              Rx   d 8 04 00 00 00 00 20 00 5C  Length = 237894 BitCount = 123 ID = 48
   0.089029 1  B3              Rx   d 6 00 00 00 00 11 CA  Length = 197898 BitCount = 103 ID = 179
   0.089220 1  3B              Rx   d 5 00 00 00 E8 28  Length = 181898 BitCount = 95 ID = 59
   0.090364 1  3E              Rx   d 3 16 D0 27  Length = 141898 BitCount = 75 ID = 62
   0.090496 1  5D4             Rx   d 2 23 00  Length = 123898 BitCount = 66 ID = 1492
   0.090662 1  39              Rx   d 4 1A 00 0B 62  Length = 157898 BitCount = 83 ID = 57
   0.090777 1  423             Rx   d 1 00  Length = 105898 BitCount = 57 ID = 1059
   0.093789 1  4C6             Rx   d 8 07 00 01 00 00 00 00 00  Length = 239894 BitCount = 124 ID = 1222
   0.094547 1  38              Rx   d 7 80 00 08 00 00 00 C7  Length = 219894 BitCount = 114 ID = 56
   0.094795 1  244             Rx   d 8 10 00 00 00 00 00 00 5E  Length = 239894 BitCount = 124 ID = 580
   0.094951 1  20              Rx   d 3 00 00 07  Length = 147898 BitCount = 78 ID = 32
   0.095198 1  30              Rx   d 8 04 00 00 00 00 20 00 5C  Length = 237894 BitCount = 123 ID = 48
   0.095404 1  B1              Rx   d 6 00 00 00 00 11 C8  Length = 197898 BitCount = 103 ID = 177
   0.095638 1  25              Rx   d 8 0F 3E 0F F5 7B 7B 7B EF  Length = 225894 BitCount = 117 ID = 37
   0.095886 1  B4              Rx   d 8 00 00 00 00 00 00 00 BC  Length = 239894 BitCount = 124 ID = 180
   0.096546 1  22              Rx   d 8 01 F6 01 FA 00 00 00 1C  Length = 235894 BitCount = 122 ID = 34
   0.096768 1  23              Rx   d 7 01 FE 02 02 00 00 2D  Length = 213894 BitCount = 111 ID = 35
   0.096995 1  3A              Rx   d 7 00 00 00 00 04 06 4B  Length = 217894 BitCount = 113 ID = 58
   0.097181 1  3B              Rx   d 5 00 00 00 E9 29  Length = 177898 BitCount = 93 ID = 59
   0.098571 1  3E              Rx   d 3 16 D0 27  Length = 141898 BitCount = 75 ID = 62
   0.098737 1  39              Rx   d 4 1A 00 0B 62  Length = 157898 BitCount = 83 ID = 57
   0.099358 1  262             Rx   d 4 00 01 00 69  Length = 159660 BitCount = 84 ID = 610
   0.099775 1  3C8             Rx   d 6 00 34 00 00 00 05  Length = 199898 BitCount = 104 ID = 968
   0.099909 1  5F8             Rx   d 2 23 04  Length = 125898 BitCount = 67 ID = 1528
   0.100697 1  120             Rx   d 8 00 00 00 00 10 10 00 49  Length = 235894 BitCount = 122 ID = 288
   0.100943 1  30              Rx   d 8 04 00 00 00 00 20 00 5C  Length = 237894 BitCount = 123 ID = 48
   0.101149 1  B3              Rx   d 6 00 00 00 00 11 CA  Length = 197898 BitCount = 103 ID = 179
   0.102766 1  38              Rx   d 7 80 00 08 00 00 00 C7  Length = 219894 BitCount = 114 ID = 56
   0.104732 1  3A              Rx   d 7 00 00 00 00 04 06 4B  Length = 217894 BitCount = 113 ID = 58
   0.105146 1  3B              Rx   d 5 00 00 00 E9 29  Length = 177898 BitCount = 93 ID = 59
   0.106746 1  3E              Rx   d 3 16 D0 27  Length = 141898 BitCount = 75 ID = 62
   0.106902 1  20              Rx   d 3 00 00 07  Length = 148136 BitCount = 78 ID = 32
   0.107148 1  30              Rx   d 8 04 00 00 00 00 20 00 5C  Length = 237894 BitCount = 123 ID = 48
   0.107315 1  39              Rx   d 4 1A 00 0B 62  Length = 157898 BitCount = 83 ID = 57
   0.107549 1  25              Rx   d 8 0F 3E 0F F5 77 77 77 E3  Length = 225894 BitCount = 117 ID = 37
   0.107755 1  B1              Rx   d 6 00 00 00 00 11 C8  Length = 197898 BitCount = 103 ID = 177
   0.108003 1  B4              Rx   d 8 00 00 00 00 00 00 00 BC  Length = 239894 BitCount = 124 ID = 180
   0.108256 1  230             Rx   d 7 00 06 00 00 00 00 3F  Length = 219894 BitCount = 114 ID = 560
   0.108504 1  22              Rx   d 8 01 F5 01 FA 00 00 00 1B  Length = 235894 BitCount = 122 ID = 34
   0.108726 1  23              Rx   d 7 01 FE 02 02 00 00 2D  Length = 213894 BitCount = 111 ID = 35
   0.109196 1  3C9             Rx   d 8 03 FF 25 02 AB 03 34 DF  Length = 225894 BitCount = 117 ID = 969
   0.109985 1  3CF             Rx   d 5 10 13 21 00 1B  Length = 171898 BitCount = 90 ID = 975
   0.110971 1  38              Rx   d 7 80 00 08 00 00 00 C7  Length = 219894 BitCount = 114 ID = 56
   0.112919 1  3A              Rx   d 7 00 00 00 00 04 06 4B  Length = 217894 BitCount = 113 ID = 58
   0.113165 1  30              Rx   d 8 04 00 00 00 00 20 00 5C  Length = 237894 BitCount = 123 ID = 48
   0.113351 1  3B              Rx   d 5 00 00 00 E9 29  Length = 177898 BitCount = 93 ID = 59
   0.113557 1  B3              Rx   d 6 00 00 00 00 11 CA  Length = 197898 BitCount = 103 ID = 179
   0.114937 1  3E              Rx   d 3 16 D0 27  Length = 141898 BitCount = 75 ID = 62
   0.115104 1  39              Rx   d 4 1A 00 0B 62  Length = 157898 BitCount = 83 ID = 57
   0.117094 1  120             Rx   d 8 00 00 00 00 10 10 00 49  Length = 235894 BitCount = 122 ID = 288
   0.117316 1  3CB             Rx   d 7 5F 5F 00 7E 0F 0D 2D  Length = 213894 BitCount = 111 ID = 971
   0.118940 1  20              Rx   d 3 00 00 07  Length = 147898 BitCount = 78 ID = 32
   0.119186 1  30              Rx   d 8 04 00 00 00 00 20 00 5C  Length = 237894 BitCount = 123 ID = 48
   0.119415 1  38              Rx   d 7 80 00 08 00 00 00 C7  Length = 220136 BitCount = 114 ID = 56
   0.119647 1  25              Rx   d 8 0F 3E 0F F5 78 78 78 E6  Length = 224136 BitCount = 116 ID = 37
   0.119853 1  B1              Rx   d 6 00 00 00 00 11 C8  Length = 198136 BitCount = 103 ID = 177
   0.120101 1  B4              Rx   d 8 00 00 00 00 00 00 00 BC  Length = 240136 BitCount = 124 ID = 180
   0.120349 1  244             Rx   d 8 10 00 00 00 00 00 00 5E  Length = 239894 BitCount = 124 ID = 580
   0.120594 1  22              Rx   d 8 01 F5 01 FA 00 00 00 1B  Length = 235894 BitCount = 122 ID = 34
   0.120816 1  23              Rx   d 7 01 FE 02 02 00 00 2D  Length = 213894 BitCount = 111 ID = 35
   0.120984 1  262             Rx   d 4 00 01 00 69  Length = 159660 BitCount = 84 ID = 610
   0.121210 1  3A              Rx   d 7 00 00 00 00 04 06 4B  Length = 217894 BitCount = 113 ID = 58
   0.121400 1  3B              Rx   d 5 00 00 00 E8 28  Length = 181898 BitCount = 95 ID = 59
   0.121550 1  526             Rx   d 3 24 00 00  Length = 141898 BitCount = 75 ID = 1318
   0.123162 1  3E              Rx   d 3 16 D0 27  Length = 141898 BitCount = 75 ID = 62
   0.123329 1  39              Rx   d 4 1A 00 0B 62  Length = 157898 BitCount = 83 ID = 57
   0.125099 1  30              Rx   d 8 04 00 00 00 00 20 00 5C  Length = 237894 BitCount = 123 ID = 48
   0.125305 1  B3              Rx   d 6 00 00 00 00 11 CA  Length = 197898 BitCount = 103 ID = 179
   0.125487 1  3CD             Rx   d 5 00 00 00 E8 BD  Length = 173898 BitCount = 91 ID = 973
   0.127357 1  38              Rx   d 7 80 00 08 00 00 00 C7  Length = 219894 BitCount = 114 ID = 56
   0.129136 1  3B              Rx   d 5 00 00 00 E8 28  Length = 181898 BitCount = 95 ID = 59
   0.129362 1  3A              Rx   d 7 00 00 00 00 04 06 4B  Length = 217894 BitCount = 113 ID = 58
   0.129570 1  348             Rx   d 6 00 01 00 00 00 52  Length = 199898 BitCount = 104 ID = 840
   0.129720 1  527             Rx   d 3 24 00 00  Length = 141898 BitCount = 75 ID = 1319
   0.131015 1  20              Rx   d 3 00 00 07  Length = 147898 BitCount = 78 ID = 32
   0.131261 1  30              Rx   d 8 04 00 00 00 00 20 00 5C  Length = 237894 BitCount = 123 ID = 48
   0.131411 1  3E              Rx   d 3 16 D0 27  Length = 141898 BitCount = 75 ID = 62
   0.131645 1  25              Rx   d 8 0F 3E 0F F5 79 79 79 E9  Length = 226136 BitCount = 117 ID = 37
   0.131811 1  39              Rx   d 4 1A 00 0B 62  Length = 157898 BitCount = 83 ID = 57
   0.132018 1  B1              Rx   d 6 00 00 00 00 11 C8  Length = 197898 BitCount = 103 ID = 177
   0.132266 1  B4              Rx   d 8 00 00 00 00 00 00 00 BC  Length = 239894 BitCount = 124 ID = 180
   0.132416 1  5C8             Rx   d 3 24 00 00  Length = 141898 BitCount = 75 ID = 1480
   0.132660 1  22              Rx   d 8 01 F5 01 FA 00 00 00 1B  Length = 235894 BitCount = 122 ID = 34
   0.132882 1  23              Rx   d 7 01 FE 02 02 00 00 2D  Length = 213894 BitCount = 111 ID = 35
   0.133110 1  230             Rx   d 7 00 06 00 00 00 00 3F  Length = 219894 BitCount = 114 ID = 560
   0.133487 1  120             Rx   d 8 00 00 00 00 10 10 00 49  Length = 235894 BitCount = 122 ID = 288
   0.135511 1  38              Rx   d 7 80 00 08 00 00 00 C7  Length = 219894 BitCount = 114 ID = 56
   0.137133 1  30              Rx   d 8 04 00 00 00 00 20 00 5C  Length = 237894 BitCount = 123 ID = 48
   0.137323 1  3B              Rx   d 5 00 00 00 E8 28  Length = 181898 BitCount = 95 ID = 59
   0.137549 1  3A              Rx   d 7 00 00 00 00 04 06 4B  Length = 217894 BitCount = 113 ID = 58
   0.137756 1  B3              Rx   d 6 00 00 00 00 11 CA  Length = 197898 BitCount = 103 ID = 179
   0.138968 1  262             Rx   d 4 00 01 00 69  Length = 159660 BitCount = 84 ID = 610
   0.139512 1  3E              Rx   d 3 16 D0 27  Length = 141898 BitCount = 75 ID = 62
   0.139678 1  39              Rx   d 4 1A 00 0B 62  Length = 157898 BitCount = 83 ID = 57
   0.141591 1  528             Rx   d 4 25 00 00 00  Length = 161898 BitCount = 85 ID = 1320
   0.143039 1  20              Rx   d 3 00 00 07  Length = 147898 BitCount = 78 ID = 32
   0.143285 1  30              Rx   d 8 04 00 00 00 00 20 00 5C  Length = 237894 BitCount = 123 ID = 48
   0.143491 1  B1              Rx   d 6 00 00 00 00 11 C8  Length = 197898 BitCount = 103 ID = 177
   0.143723 1  25              Rx   d 8 0F 3E 0F F5 78 78 78 E6  Length = 223894 BitCount = 116 ID = 37
   0.143952 1  38              Rx   d 7 80 00 08 00 00 00 C7  Length = 219894 BitCount = 114 ID = 56
   0.144200 1  B4              Rx   d 8 00 00 00 00 00 00 00 BC  Length = 239894 BitCount = 124 ID = 180
   0.144448 1  244             Rx   d 8 10 00 00 00 00 00 00 5E  Length = 239894 BitCount = 124 ID = 580
   0.144692 1  22              Rx   d 8 01 F6 01 FA 00 00 00 1C  Length = 235894 BitCount = 122 ID = 34
   0.144914 1  23              Rx   d 7 01 FE 02 02 00 00 2D  Length = 213894 BitCount = 111 ID = 35
   0.145145 1  5EC             Rx   d 7 28 00 00 00 00 00 00  Length = 221894 BitCount = 115 ID = 1516
   0.145331 1  3B              Rx   d 5 00 00 00 E9 29  Length = 177898 BitCount = 93 ID = 59
   0.145715 1  3A              Rx   d 7 00 00 00 00 04 06 4B  Length = 217894 BitCount = 113 ID = 58
   0.147703 1  3E              Rx   d 3 16 D0 27  Length = 141898 BitCount = 75 ID = 62
   0.147869 1  39              Rx   d 4 1A 00 0B 62  Length = 157898 BitCount = 83 ID = 57
   0.149153 1  30              Rx   d 8 04 00 00 00 00 20 00 5C  Length = 237894 BitCount = 123 ID = 48
   0.149360 1  B3              Rx   d 6 00 00 00 00 11 CA  Length = 197898 BitCount = 103 ID = 179
   0.149844 1  120             Rx   d 8 00 00 00 00 10 10 00 49  Length = 235894 BitCount = 122 ID = 288
   0.151884 1  38              Rx   d 7 80 00 08 00 00 00 C7  Length = 219894 BitCount = 114 ID = 56
   0.153142 1  3B              Rx   d 5 00 00 00 E9 29  Length = 177898 BitCount = 93 ID = 59
   0.153900 1  3A              Rx   d 7 00 00 00 00 04 06 4B  Length = 217894 BitCount = 113 ID = 58
   0.155093 1  20              Rx   d 3 00 00 07  Length = 147898 BitCount = 78 ID = 32
   0.155339 1  30              Rx   d 8 04 00 00 00 00 20 00 5C  Length = 237894 BitCount = 123 ID = 48
   0.155545 1  B1              Rx   d 6 00 00 00 00 11 C8  Length = 197898 BitCount = 103 ID = 177
   0.155777 1  25              Rx   d 8 0F 3E 0F F5 78 78 78 E6  Length = 223894 BitCount = 116 ID = 37
   0.156025 1  B4              Rx   d 8 00 00 00 00 00 00 00 BC  Length = 239894 BitCount = 124 ID = 180
   0.156192 1  39              Rx   d 4 1A 00 0B 62  Length = 157898 BitCount = 83 ID = 57
   0.156342 1  3E              Rx   d 3 16 D0 27  Length = 141898 BitCount = 75 ID = 62
   0.156570 1  230             Rx   d 7 00 06 00 00 00 00 3F  Length = 219894 BitCount = 114 ID = 560
   0.156814 1  22              Rx   d 8 01 F6 01 FA 00 00 00 1C  Length = 235894 BitCount = 122 ID = 34
   0.157036 1  23              Rx   d 7 01 FE 02 02 00 00 2D  Length = 213894 BitCount = 111 ID = 35
   0.159277 1  262             Rx   d 4 00 01 00 69  Length = 159660 BitCount = 84 ID = 610
   0.160088 1  38              Rx   d 7 80 00 08 00 00 00 C7  Length = 219894 BitCount = 114 ID = 56
   0.161150 1  3B              Rx   d 5 00 00 00 E8 28  Length = 181898 BitCount = 95 ID = 59
   0.161396 1  30              Rx   d 8 04 00 00 00 00 20 00 5C  Length = 237894 BitCount = 123 ID = 48
   0.161603 1  B3              Rx   d 6 00 00 00 00 11 CA  Length = 197898 BitCount = 103 ID = 179
   0.162115 1  3A              Rx   d 7 00 00 00 00 04 06 4B  Length = 217894 BitCount = 113 ID = 58
   0.164089 1  3E              Rx   d 3 16 D0 27  Length = 141898 BitCount = 75 ID = 62
   0.164255 1  39              Rx   d 4 1A 00 0B 62  Length = 157898 BitCount = 83 ID = 57
   0.165317 1  3C8             Rx   d 6 00 34 00 00 00 05  Length = 199898 BitCount = 104 ID = 968
   0.166216 1  120             Rx   d 8 00 00 00 00 10 10 00 49  Length = 235894 BitCount = 122 ID = 288
   0.166406 1  3CA             Rx   d 5 00 20 00 00 F2  Length = 181898 BitCount = 95 ID = 970
   0.167146 1  20              Rx   d 3 00 00 07  Length = 147898 BitCount = 78 ID = 32
   0.167392 1  30              Rx   d 8 04 00 00 00 00 20 00 5C  Length = 237894 BitCount = 123 ID = 48
   0.167598 1  B1              Rx   d 6 00 00 00 00 11 C8  Length = 197898 BitCount = 103 ID = 177
   0.167833 1  25              Rx   d 8 0F 3E 0F F5 79 79 79 E9  Length = 225894 BitCount = 117 ID = 37
   0.168081 1  B4              Rx   d 8 00 00 00 00 00 00 00 BC  Length = 239894 BitCount = 124 ID = 180
   0.168309 1  38              Rx   d 7 80 00 08 00 00 00 C7  Length = 219894 BitCount = 114 ID = 56
   0.168557 1  244             Rx   d 8 10 00 00 00 00 00 00 5E  Length = 239894 BitCount = 124 ID = 580
   0.168802 1  22              Rx   d 8 01 F5 01 FA 00 00 00 1B  Length = 235894 BitCount = 122 ID = 34
   0.169024 1  23              Rx   d 7 01 FE 02 02 00 00 2D  Length = 213894 BitCount = 111 ID = 35
   0.169214 1  3B              Rx   d 5 00 00 00 E8 28  Length = 181898 BitCount = 95 ID = 59
   0.170276 1  3A              Rx   d 7 00 00 00 00 04 06 4B  Length = 217894 BitCount = 113 ID = 58
   0.170484 1  348             Rx   d 6 00 01 00 00 00 52  Length = 199898 BitCount = 104 ID = 840
   0.171688 1  4C7             Rx   d 8 08 00 01 00 00 00 00 00  Length = 237894 BitCount = 123 ID = 1223
   0.172278 1  3E              Rx   d 3 16 D0 27  Length = 141898 BitCount = 75 ID = 62
   0.172444 1  39              Rx   d 4 1A 00 0B 62  Length = 157898 BitCount = 83 ID = 57
   0.173263 1  30              Rx   d 8 04 00 00 00 00 20 00 5C  Length = 237894 BitCount = 123 ID = 48
   0.173469 1  B3              Rx   d 6 00 00 00 00 11 CA  Length = 197898 BitCount = 103 ID = 179
   0.176459 1  38              Rx   d 7 80 00 08 00 00 00 C7  Length = 219894 BitCount = 114 ID = 56
   0.177155 1  3B              Rx   d 5 00 00 00 E8 28  Length = 181898 BitCount = 95 ID = 59
   0.178467 1  3A              Rx   d 7 00 00 00 00 04 06 4B  Length = 217894 BitCount = 113 ID = 58
   0.178915 1  262             Rx   d 4 00 01 00 69  Length = 159660 BitCount = 84 ID = 610
   0.179177 1  20              Rx   d 3 00 00 07  Length = 147898 BitCount = 78 ID = 32
   0.179423 1  30              Rx   d 8 04 00 00 00 00 20 00 5C  Length = 237894 BitCount = 123 ID = 48
   0.179629 1  B1              Rx   d 6 00 00 00 00 11 C8  Length = 197898 BitCount = 103 ID = 177
   0.179862 1  25              Rx   d 8 0F 3E 0F F5 78 78 78 E6  Length = 223894 BitCount = 116 ID = 37
   0.180110 1  B4              Rx   d 8 00 00 00 00 00 00 00 BC  Length = 239894 BitCount = 124 ID = 180
   0.180372 1  230             Rx   d 7 00 06 00 00 00 00 3F  Length = 219894 BitCount = 114 ID = 560
   0.180522 1  3E              Rx   d 3 16 D0 27  Length = 141898 BitCount = 75 ID = 62
   0.180688 1  39              Rx   d 4 1A 00 0B 62  Length = 157898 BitCount = 83 ID = 57
   0.180933 1  22              Rx   d 8 01 F5 01 FA 00 00 00 1B  Length = 235894 BitCount = 122 ID = 34
   0.181155 1  23              Rx   d 7 01 FE 02 02 00 00 2D  Length = 213894 BitCount = 111 ID = 35
   0.182595 1  120             Rx   d 8 00 00 00 00 10 10 00 49  Length = 235894 BitCount = 122 ID = 288
   0.184649 1  38              Rx   d 7 80 00 08 00 00 00 C7  Length = 219894 BitCount = 114 ID = 56
   0.185157 1  3B              Rx   d 5 00 00 00 E8 28  Length = 181898 BitCount = 95 ID = 59
   0.185403 1  30              Rx   d 8 04 00 00 00 00 20 00 5C  Length = 237894 BitCount = 123 ID = 48
   0.185610 1  B3              Rx   d 6 00 00 00 00 11 CA  Length = 197898 BitCount = 103 ID = 179
   0.186688 1  3A              Rx   d 7 00 00 00 00 04 06 4B  Length = 217894 BitCount = 113 ID = 58
   0.188660 1  3E              Rx   d 3 16 D0 27  Length = 141898 BitCount = 75 ID = 62
   0.188826 1  39              Rx   d 4 1A 00 0B 62  Length = 157898 BitCount = 83 ID = 57
   0.191252 1  20              Rx   d 3 00 00 07  Length = 147898 BitCount = 78 ID = 32
   0.191498 1  30              Rx   d 8 04 00 00 00 00 20 00 5C  Length = 237894 BitCount = 123 ID = 48
   0.191705 1  B1              Rx   d 6 00 00 00 00 11 C8  Length = 197898 BitCount = 103 ID = 177
   0.191937 1  25              Rx   d 8 0F 3E 0F F5 78 78 78 E6  Length = 223894 BitCount = 116 ID = 37
   0.192185 1  B4              Rx   d 8 00 00 00 00 00 00 00 BC  Length = 239894 BitCount = 124 ID = 180
   0.192851 1  22              Rx   d 8 01 F5 01 FA 00 00 00 1B  Length = 235894 BitCount = 122 ID = 34
   0.193073 1  23              Rx   d 7 01 FE 02 02 00 00 2D  Length = 213894 BitCount = 111 ID = 35
   0.193301 1  38              Rx   d 7 80 00 08 00 00 00 C7  Length = 219894 BitCount = 114 ID = 56
   0.193492 1  3B              Rx   d 5 00 00 00 E8 28  Length = 181898 BitCount = 95 ID = 59
   0.193740 1  244             Rx   d 8 10 00 00 00 00 00 00 5E  Length = 239894 BitCount = 124 ID = 580
   0.194846 1  3A              Rx   d 7 00 00 00 00 04 06 4B  Length = 217894 BitCount = 113 ID = 58
   0.196852 1  3E              Rx   d 3 16 D0 27  Length = 141898 BitCount = 75 ID = 62
   0.197018 1  39              Rx   d 4 1A 00 0B 62  Length = 157898 BitCount = 83 ID = 57
   0.197365 1  30              Rx   d 8 04 00 00 00 00 20 00 5C  Length = 237894 BitCount = 123 ID = 48
   0.197571 1  B3              Rx   d 6 00 00 00 00 11 CA  Length = 197898 BitCount = 103 ID = 179
   0.198993 1  120             Rx   d 8 00 00 00 00 10 10 00 49  Length = 235894 BitCount = 122 ID = 288
   0.199161 1  262             Rx   d 4 00 01 00 69  Length = 159660 BitCount = 84 ID = 610
   0.201045 1  38              Rx   d 7 80 00 08 00 00 00 C7  Length = 219894 BitCount = 114 ID = 56
   0.201231 1  3B              Rx   d 5 00 00 00 E9 29  Length = 177898 BitCount = 93 ID = 59
   0.203037 1  3A              Rx   d 7 00 00 00 00 04 06 4B  Length = 217894 BitCount = 113 ID = 58
   0.203281 1  20              Rx   d 3 00 00 07  Length = 147898 BitCount = 78 ID = 32
   0.203528 1  30              Rx   d 8 04 00 00 00 00 20 00 5C  Length = 237894 BitCount = 123 ID = 48
   0.203734 1  B1              Rx   d 6 00 00 00 00 11 C8  Length = 197898 BitCount = 103 ID = 177
   0.203968 1  25              Rx   d 8 0F 3E 0F F5 79 79 79 E9  Length = 225894 BitCount = 117 ID = 37
   0.204216 1  B4              Rx   d 8 00 00 00 00 00 00 00 BC  Length = 239894 BitCount = 124 ID = 180
   0.204481 1  230             Rx   d 7 00 06 00 00 00 00 3F  Length = 219894 BitCount = 114 ID = 560
   0.204877 1  22              Rx   d 8 01 F5 01 FB 00 00 00 1C  Length = 239894 BitCount = 124 ID = 34
   0.205099 1  23              Rx   d 7 01 FE 02 02 00 00 2D  Length = 213894 BitCount = 111 ID = 35
   0.205265 1  39              Rx   d 4 1A 00 0B 62  Length = 157898 BitCount = 83 ID = 57
   0.205415 1  3E              Rx   d 3 16 D0 27  Length = 141898 BitCount = 75 ID = 62
   0.209223 1  38              Rx   d 7 80 00 08 00 00 00 C7  Length = 219894 BitCount = 114 ID = 56
   0.209469 1  30              Rx   d 8 04 00 00 00 00 20 00 5C  Length = 237894 BitCount = 123 ID = 48
   0.209655 1  3B              Rx   d 5 00 00 00 E9 29  Length = 177898 BitCount = 93 ID = 59
   0.209862 1  B3              Rx   d 6 00 00 00 00 11 CA  Length = 197898 BitCount = 103 ID = 179
   0.210096 1  3C9             Rx   d 8 03 FF 25 02 AB 03 34 DF  Length = 225894 BitCount = 117 ID = 969
   0.211284 1  3A              Rx   d 7 00 00 00 00 04 06 4B  Length = 217894 BitCount = 113 ID = 58
   0.211492 1  348             Rx   d 6 00 01 00 00 00 52  Length = 199898 BitCount = 104 ID = 840
   0.213234 1  3E              Rx   d 3 16 D0 27  Length = 141898 BitCount = 75 ID = 62
   0.213401 1  39              Rx   d 4 1A 00 0B 62  Length = 157898 BitCount = 83 ID = 57
   0.215343 1  120             Rx   d 8 00 00 00 00 10 10 00 49  Length = 235894 BitCount = 122 ID = 288
   0.215499 1  20              Rx   d 3 00 00 07  Length = 147898 BitCount = 78 ID = 32
   0.215745 1  30              Rx   d 8 04 00 00 00 00 20 00 5C  Length = 237894 BitCount = 123 ID = 48
   0.215951 1  B1              Rx   d 6 00 00 00 00 11 C8  Length = 197898 BitCount = 103 ID = 177
   0.216183 1  25              Rx   d 8 0F 3E 0F F5 7A 7A 7A EC  Length = 223894 BitCount = 116 ID = 37
   0.216432 1  B4              Rx   d 8 00 00 00 00 00 00 00 BC  Length = 239894 BitCount = 124 ID = 180
   0.217092 1  22              Rx   d 8 01 F6 01 FB 00 00 00 1D  Length = 235894 BitCount = 122 ID = 34
   0.217314 1  23              Rx   d 7 01 FE 02 02 00 00 2D  Length = 213894 BitCount = 111 ID = 35
   0.217542 1  38              Rx   d 7 80 00 08 00 00 00 C7  Length = 219894 BitCount = 114 ID = 56
   0.217732 1  3B              Rx   d 5 00 00 00 E8 28  Length = 181898 BitCount = 95 ID = 59
   0.217980 1  244             Rx   d 8 10 00 00 00 00 00 00 5E  Length = 239894 BitCount = 124 ID = 580
   0.218203 1  3CB             Rx   d 7 5F 5F 00 7E 0F 0D 2D  Length = 213894 BitCount = 111 ID = 971
   0.219203 1  262             Rx   d 4 00 01 00 69  Length = 159660 BitCount = 84 ID = 610
   0.219448 1  3A              Rx   d 7 00 00 00 00 04 06 4B  Length = 217894 BitCount = 113 ID = 58
   0.221438 1  30              Rx   d 8 04 00 00 00 00 20 00 5C  Length = 237894 BitCount = 123 ID = 48
   0.221604 1  39              Rx   d 4 1A 00 0B 62  Length = 157898 BitCount = 83 ID = 57
   0.221754 1  3E              Rx   d 3 16 D0 27  Length = 141898 BitCount = 75 ID = 62
   0.221960 1  B3              Rx   d 6 00 00 00 00 11 CA  Length = 197898 BitCount = 103 ID = 179
   0.225205 1  3B              Rx   d 5 00 00 00 E8 28  Length = 181898 BitCount = 95 ID = 59
   0.225389 1  3CD             Rx   d 5 00 00 00 E8 BD  Length = 173898 BitCount = 91 ID = 973
   0.225624 1  38              Rx   d 7 80 00 08 00 00 00 C7  Length = 219894 BitCount = 114 ID = 56
   0.227372 1  20              Rx   d 3 00 00 07  Length = 147898 BitCount = 78 ID = 32
   0.227618 1  30              Rx   d 8 04 00 00 00 00 20 00 5C  Length = 237894 BitCount = 123 ID = 48
   0.227844 1  3A              Rx   d 7 00 00 00 00 04 06 4B  Length = 217894 BitCount = 113 ID = 58
   0.228081 1  25              Rx   d 8 0F 3E 0F F5 76 76 76 E0  Length = 227894 BitCount = 118 ID = 37
   0.228287 1  B1              Rx   d 6 00 00 00 00 11 C8  Length = 197898 BitCount = 103 ID = 177
   0.228535 1  B4              Rx   d 8 00 00 00 00 00 00 00 BC  Length = 239894 BitCount = 124 ID = 180
   0.228787 1  230             Rx   d 7 00 06 00 00 00 00 3F  Length = 219894 BitCount = 114 ID = 560
   0.229031 1  22              Rx   d 8 01 F6 01 FA 00 00 00 1C  Length = 235894 BitCount = 122 ID = 34
   0.229254 1  23              Rx   d 7 01 FE 02 02 00 00 2D  Length = 213894 BitCount = 111 ID = 35
   0.229618 1  3E              Rx   d 3 16 D0 27  Length = 141898 BitCount = 75 ID = 62
   0.229784 1  39              Rx   d 4 1A 00 0B 62  Length = 157898 BitCount = 83 ID = 57
   0.230862 1  3C8             Rx   d 6 00 34 00 00 00 05  Length = 199898 BitCount = 104 ID = 968
   0.231792 1  120             Rx   d 8 00 00 00 00 10 10 00 49  Length = 235894 BitCount = 122 ID = 288
   0.233201 1  3B              Rx   d 5 00 00 00 E8 28  Length = 181898 BitCount = 95 ID = 59
   0.233509 1  30              Rx   d 8 04 00 00 00 00 20 00 5C  Length = 237894 BitCount = 123 ID = 48
   0.233715 1  B3              Rx   d 6 00 00 00 00 11 CA  Length = 197898 BitCount = 103 ID = 179
   0.233943 1  38              Rx   d 7 80 00 08 00 00 00 C7  Length = 219894 BitCount = 114 ID = 56
   0.235806 1  3A              Rx   d 7 00 00 00 00 04 06 4B  Length = 217894 BitCount = 113 ID = 58
   0.237810 1  3E              Rx   d 3 16 D0 27  Length = 141898 BitCount = 75 ID = 62
   0.237976 1  39              Rx   d 4 1A 00 0B 62  Length = 157898 BitCount = 83 ID = 57
   0.239072 1  262             Rx   d 4 00 01 00 69  Length = 159660 BitCount = 84 ID = 610
   0.239451 1  20              Rx   d 3 00 00 07  Length = 147898 BitCount = 78 ID = 32
   0.239697 1  30              Rx   d 8 04 00 00 00 00 20 00 5C  Length = 237894 BitCount = 123 ID = 48
   0.239903 1  B1              Rx   d 6 00 00 00 00 11 C8  Length = 197898 BitCount = 103 ID = 177
   0.240137 1  25              Rx   d 8 0F 3E 0F F5 79 79 79 E9  Length = 225894 BitCount = 117 ID = 37
   0.240386 1  B4              Rx   d 8 00 00 00 00 00 00 00 BC  Length = 239894 BitCount = 124 ID = 180
   0.241046 1  22              Rx   d 8 01 F5 01 FA 00 00 00 1B  Length = 235894 BitCount = 122 ID = 34
   0.241268 1  23              Rx   d 7 01 FE 02 02 00 00 2D  Length = 213894 BitCount = 111 ID = 35
   0.241458 1  3B              Rx   d 5 00 00 00 E8 28  Length = 181898 BitCount = 95 ID = 59
   0.241638 1  3CF             Rx   d 5 10 13 21 00 1B  Length = 171898 BitCount = 90 ID = 975
   0.242068 1  38              Rx   d 7 80 00 08 00 00 00 C7  Length = 219894 BitCount = 114 ID = 56
   0.242316 1  244             Rx   d 8 10 00 00 00 00 00 00 5E  Length = 239894 BitCount = 124 ID = 580
   0.243983 1  3A              Rx   d 7 00 00 00 00 04 06 4B  Length = 217894 BitCount = 113 ID = 58
   0.245593 1  30              Rx   d 8 04 00 00 00 00 20 00 5C  Length = 237894 BitCount = 123 ID = 48
   0.245799 1  B3              Rx   d 6 00 00 00 00 11 CA  Length = 197898 BitCount = 103 ID = 179
   0.246009 1  3E              Rx   d 3 16 D0 27  Length = 141898 BitCount = 75 ID = 62
   0.246175 1  39              Rx   d 4 1A 00 0B 62  Length = 157898 BitCount = 83 ID = 57
   0.248142 1  120             Rx   d 8 00 00 00 00 10 10 00 49  Length = 235894 BitCount = 122 ID = 288
   0.249226 1  3B              Rx   d 5 00 00 00 E9 29  Length = 177898 BitCount = 93 ID = 59
   0.250192 1  38              Rx   d 7 80 00 08 00 00 00 C7  Length = 219894 BitCount = 114 ID = 56
   0.251496 1  20              Rx   d 3 00 00 07  Length = 147898 BitCount = 78 ID = 32
   0.251743 1  30              Rx   d 8 04 00 00 00 00 20 00 5C  Length = 237894 BitCount = 123 ID = 48
   0.251949 1  B1              Rx   d 6 00 00 00 00 11 C8  Length = 197898 BitCount = 103 ID = 177
   0.252181 1  25              Rx   d 8 0F 3E 0F F5 78 78 78 E6  Length = 223894 BitCount = 116 ID = 37
   0.252407 1  3A              Rx   d 7 00 00 00 00 04 06 4B  Length = 217894 BitCount = 113 ID = 58
   0.252655 1  B4              Rx   d 8 00 00 00 00 00 00 00 BC  Length = 239894 BitCount = 124 ID = 180
   0.252864 1  348             Rx   d 6 00 01 00 00 00 52  Length = 199898 BitCount = 104 ID = 840
   0.253108 1  22              Rx   d 8 01 F5 01 FA 00 00 00 1B  Length = 235894 BitCount = 122 ID = 34
   0.253330 1  23              Rx   d 7 01 FE 02 02 00 00 2D  Length = 213894 BitCount = 111 ID = 35
   0.253558 1  230             Rx   d 7 00 06 00 00 00 00 3F  Length = 219894 BitCount = 114 ID = 560
   0.254192 1  3E              Rx   d 3 16 D0 27  Length = 141898 BitCount = 75 ID = 62
   0.254360 1  39              Rx   d 4 1A 00 0B 62  Length = 157898 BitCount = 83 ID = 57
   0.257207 1  3B              Rx   d 5 00 00 00 E9 29  Length = 177898 BitCount = 93 ID = 59
   0.257621 1  30              Rx   d 8 04 00 00 00 00 20 00 5C  Length = 237894 BitCount = 123 ID = 48
   0.257827 1  B3              Rx   d 6 00 00 00 00 11 CA  Length = 197898 BitCount = 103 ID = 179
   0.258420 1  38              Rx   d 7 80 00 08 00 00 00 C7  Length = 219894 BitCount = 114 ID = 56
   0.259045 1  521             Rx   d 2 23 00  Length = 125898 BitCount = 67 ID = 1313
   0.259213 1  262             Rx   d 4 00 01 00 69  Length = 159660 BitCount = 84 ID = 610
   0.259833 1  554             Rx   d 7 58 41 42 4C 41 45 4E  Length = 205898 BitCount = 107 ID = 1364
   0.260391 1  3A              Rx   d 7 00 00 00 00 04 06 4B  Length = 217894 BitCount = 113 ID = 58
   0.262384 1  3E              Rx   d 3 16 D0 27  Length = 141898 BitCount = 75 ID = 62
   0.262556 1  39              Rx   d 4 1A 00 0B 62  Length = 157898 BitCount = 83 ID = 57
   0.262802 1  4C1             Rx   d 8 01 00 09 01 00 00 00 00  Length = 237894 BitCount = 123 ID = 1217
   0.263558 1  20              Rx   d 3 00 00 07  Length = 147898 BitCount = 78 ID = 32
   0.263804 1  30              Rx   d 8 04 00 00 00 00 20 00 5C  Length = 237894 BitCount = 123 ID = 48
   0.264011 1  B1              Rx   d 6 00 00 00 00 11 C8  Length = 197898 BitCount = 103 ID = 177
   0.264245 1  25              Rx   d 8 0F 3E 0F F5 79 79 79 E9  Length = 225894 BitCount = 117 ID = 37
   0.264493 1  B4              Rx   d 8 00 00 00 00 00 00 00 BC  Length = 239894 BitCount = 124 ID = 180
   0.264737 1  120             Rx   d 8 00 00 00 00 10 10 00 49  Length = 235894 BitCount = 122 ID = 288
   0.265155 1  22              Rx   d 8 01 F5 01 FA 00 00 00 1B  Length = 235894 BitCount = 122 ID = 34
   0.265378 1  23              Rx   d 7 01 FE 02 02 00 00 2D  Length = 213894 BitCount = 111 ID = 35
   0.265568 1  3B              Rx   d 5 00 00 00 E8 28  Length = 181898 BitCount = 95 ID = 59
   0.266596 1  38              Rx   d 7 80 00 08 00 00 00 C7  Length = 219894 BitCount = 114 ID = 56
   0.266844 1  244             Rx   d 8 10 00 00 00 00 00 00 5E  Length = 239894 BitCount = 124 ID = 580
   0.267034 1  3CA             Rx   d 5 00 20 00 00 F2  Length = 181898 BitCount = 95 ID = 970
   0.268567 1  3A              Rx   d 7 00 00 00 00 04 06 4B  Length = 217894 BitCount = 113 ID = 58
   0.269725 1  30              Rx   d 8 04 00 00 00 00 20 00 5C  Length = 237894 BitCount = 123 ID = 48
   0.269931 1  B3              Rx   d 6 00 00 00 00 11 CA  Length = 197898 BitCount = 103 ID = 179
   0.270577 1  3E              Rx   d 3 16 D0 27  Length = 141898 BitCount = 75 ID = 62
   0.270823 1  4D0             Rx   d 8 10 00 02 03 00 00 00 00  Length = 237894 BitCount = 123 ID = 1232
   0.270990 1  39              Rx   d 4 1A 00 0B 62  Length = 157898 BitCount = 83 ID = 57
   0.273212 1  3B              Rx   d 5 00 00 00 E8 28  Length = 181898 BitCount = 95 ID = 59
   0.274770 1  38              Rx   d 7 80 00 08 00 00 00 C7  Length = 219894 BitCount = 114 ID = 56
   0.275648 1  20              Rx   d 3 00 00 07  Length = 147898 BitCount = 78 ID = 32
   0.275895 1  30              Rx   d 8 04 00 00 00 00 20 00 5C  Length = 237894 BitCount = 123 ID = 48
   0.276101 1  B1              Rx   d 6 00 00 00 00 11 C8  Length = 197898 BitCount = 103 ID = 177
   0.276333 1  25              Rx   d 8 0F 3E 0F F5 78 78 78 E6  Length = 223894 BitCount = 116 ID = 37
   0.276581 1  B4              Rx   d 8 00 00 00 00 00 00 00 BC  Length = 239894 BitCount = 124 ID = 180
   0.276808 1  3A              Rx   d 7 00 00 00 00 04 06 4B  Length = 217894 BitCount = 113 ID = 58
   0.277036 1  230             Rx   d 7 00 06 00 00 00 00 3F  Length = 219894 BitCount = 114 ID = 560
   0.277280 1  22              Rx   d 8 01 F5 01 FA 00 00 00 1B  Length = 235894 BitCount = 122 ID = 34
   0.277502 1  23              Rx   d 7 01 FE 02 02 00 00 2D  Length = 213894 BitCount = 111 ID = 35
   0.278766 1  3E              Rx   d 3 16 D0 27  Length = 141898 BitCount = 75 ID = 62
   0.278940 1  39              Rx   d 4 1A 00 0B 62  Length = 157898 BitCount = 83 ID = 57
   0.279108 1  262             Rx   d 4 00 01 00 69  Length = 159660 BitCount = 84 ID = 610
   0.279329 1  553             Rx   d 7 58 49 00 08 00 00 01  Length = 211894 BitCount = 110 ID = 1363
   0.280909 1  120             Rx   d 8 00 00 00 00 10 10 00 49  Length = 235894 BitCount = 122 ID = 288
   0.281237 1  3B              Rx   d 5 00 00 00 E8 28  Length = 181898 BitCount = 95 ID = 59
   0.281783 1  30              Rx   d 8 04 00 00 00 00 20 00 5C  Length = 237894 BitCount = 123 ID = 48
   0.281989 1  B3              Rx   d 6 00 00 00 00 11 CA  Length = 197898 BitCount = 103 ID = 179
   0.282992 1  38              Rx   d 7 80 00 08 00 00 00 C7  Length = 219894 BitCount = 114 ID = 56
   0.284950 1  3A              Rx   d 7 00 00 00 00 04 06 4B  Length = 217894 BitCount = 113 ID = 58
   0.286958 1  3E              Rx   d 3 16 D0 27  Length = 141898 BitCount = 75 ID = 62
   0.287134 1  39              Rx   d 4 1A 00 0B 62  Length = 157898 BitCount = 83 ID = 57
   0.287704 1  20              Rx   d 3 00 00 07  Length = 147898 BitCount = 78 ID = 32
   0.287950 1  30              Rx   d 8 04 00 00 00 00 20 00 5C  Length = 237894 BitCount = 123 ID = 48
   0.288157 1  B1              Rx   d 6 00 00 00 00 11 C8  Length = 197898 BitCount = 103 ID = 177
   0.288391 1  25              Rx   d 8 0F 3E 0F F5 79 79 79 E9  Length = 225894 BitCount = 117 ID = 37
   0.288639 1  B4              Rx   d 8 00 00 00 00 00 00 00 BC  Length = 239894 BitCount = 124 ID = 180
   0.289217 1  3B              Rx   d 5 00 00 00 E8 28  Length = 181898 BitCount = 95 ID = 59
   0.289462 1  22              Rx   d 8 01 F6 01 FA 00 00 00 1C  Length = 235894 BitCount = 122 ID = 34
   0.289684 1  23              Rx   d 7 01 FE 02 02 00 00 2D  Length = 213894 BitCount = 111 ID = 35
   0.291154 1  38              Rx   d 7 80 00 08 00 00 00 C7  Length = 219894 BitCount = 114 ID = 56
   0.291402 1  244             Rx   d 8 10 00 00 00 00 00 00 5E  Length = 239894 BitCount = 124 ID = 580
   0.293134 1  3A              Rx   d 7 00 00 00 00 04 06 4B  Length = 217894 BitCount = 113 ID = 58
   0.293342 1  348             Rx   d 6 00 01 00 00 00 52  Length = 199898 BitCount = 104 ID = 840
   0.293589 1  4D1             Rx   d 8 11 00 01 02 00 00 00 00  Length = 237894 BitCount = 123 ID = 1233
   0.293839 1  30              Rx   d 8 04 00 00 00 00 20 00 5C  Length = 237894 BitCount = 123 ID = 48
   0.294045 1  B3              Rx   d 6 00 00 00 00 11 CA  Length = 197898 BitCount = 103 ID = 179
   0.295149 1  3E              Rx   d 3 16 D0 27  Length = 141898 BitCount = 75 ID = 62
   0.295325 1  39              Rx   d 4 1A 00 0B 62  Length = 157898 BitCount = 83 ID = 57
   0.296410 1  3C8             Rx   d 6 00 34 00 00 00 05  Length = 199898 BitCount = 104 ID = 968
   0.296556 1  5CC             Rx   d 3 24 01 A6  Length = 137898 BitCount = 73 ID = 1484
   0.297216 1  3B              Rx   d 5 00 00 00 E8 28  Length = 181898 BitCount = 95 ID = 59
   0.297461 1  120             Rx   d 8 00 00 00 00 10 10 00 49  Length = 235894 BitCount = 122 ID = 288
   0.299027 1  262             Rx   d 4 00 01 00 69  Length = 159660 BitCount = 84 ID = 610
   0.299369 1  38              Rx   d 7 80 00 08 00 00 00 C7  Length = 219894 BitCount = 114 ID = 56
   0.299743 1  20              Rx   d 3 00 00 07  Length = 147898 BitCount = 78 ID = 32
   0.299989 1  30              Rx   d 8 04 00 00 00 00 20 00 5C  Length = 237894 BitCount = 123 ID = 48
   0.300196 1  B1              Rx   d 6 00 00 00 00 11 C8  Length = 197898 BitCount = 103 ID = 177
   0.300428 1  25              Rx   d 8 0F 3E 0F F5 78 78 78 E6  Length = 223894 BitCount = 116 ID = 37
   0.300676 1  B4              Rx   d 8 00 00 00 00 00 00 00 BC  Length = 239894 BitCount = 124 ID = 180
   0.300936 1  230             Rx   d 7 00 06 00 00 00 00 3F  Length = 219894 BitCount = 114 ID = 560
   0.301330 1  22              Rx   d 8 01 F6 01 FA 00 00 00 1C  Length = 235894 BitCount = 122 ID = 34
   0.301552 1  23              Rx   d 7 01 FE 02 02 00 00 2D  Length = 213894 BitCount = 111 ID = 35
   0.301779 1  3A              Rx   d 7 00 00 00 00 04 06 4B  Length = 217894 BitCount = 113 ID = 58
   0.303341 1  3E              Rx   d 3 16 D0 27  Length = 141898 BitCount = 75 ID = 62
   0.303519 1  39              Rx   d 4 1A 00 0B 62  Length = 157898 BitCount = 83 ID = 57
   0.305205 1  3B              Rx   d 5 00 00 00 E8 28  Length = 181898 BitCount = 95 ID = 59
   0.305852 1  30              Rx   d 8 04 00 00 00 00 20 00 5C  Length = 237894 BitCount = 123 ID = 48
   0.306058 1  B3              Rx   d 6 00 00 00 00 11 CA  Length = 197898 BitCount = 103 ID = 179
   0.306204 1  5B6             Rx   d 3 64 C5 C0  Length = 137898 BitCount = 73 ID = 1462
   0.307592 1  38              Rx   d 7 80 00 08 00 00 00 C7  Length = 219894 BitCount = 114 ID = 56
   0.309274 1  3C9             Rx   d 8 03 FF 25 02 AB 03 34 DF  Length = 225894 BitCount = 117 ID = 969
   0.309517 1  3A              Rx   d 7 00 00 00 00 04 06 4B  Length = 217894 BitCount = 113 ID = 58
   0.311531 1  3E              Rx   d 3 16 D0 27  Length = 141898 BitCount = 75 ID = 62
   0.311713 1  39              Rx   d 4 1A 00 0B 62  Length = 157898 BitCount = 83 ID = 57
   0.311869 1  20              Rx   d 3 00 00 07  Length = 147898 BitCount = 78 ID = 32
   0.312115 1  30              Rx   d 8 04 00 00 00 00 20 00 5C  Length = 237894 BitCount = 123 ID = 48
   0.312322 1  B1              Rx   d 6 00 00 00 00 11 C8  Length = 197898 BitCount = 103 ID = 177
   0.312556 1  25              Rx   d 8 0F 3E 0F F5 79 79 79 E9  Length = 225894 BitCount = 117 ID = 37
   0.312804 1  B4              Rx   d 8 00 00 00 00 00 00 00 BC  Length = 239894 BitCount = 124 ID = 180
   0.313200 1  3B              Rx   d 5 00 00 00 E8 28  Length = 181898 BitCount = 95 ID = 59
   0.313465 1  22              Rx   d 8 01 F6 01 FA 00 00 00 1C  Length = 235894 BitCount = 122 ID = 34
   0.313687 1  23              Rx   d 7 01 FE 02 02 00 00 2D  Length = 213894 BitCount = 111 ID = 35
   0.313931 1  120             Rx   d 8 00 00 00 00 10 10 00 49  Length = 235894 BitCount = 122 ID = 288
   0.315723 1  38              Rx   d 7 80 00 08 00 00 00 C7  Length = 219894 BitCount = 114 ID = 56
   0.315971 1  244             Rx   d 8 10 00 00 00 00 00 00 5E  Length = 239894 BitCount = 124 ID = 580
   0.317262 1  3CB             Rx   d 7 5F 5F 00 7E 0F 0D 2D  Length = 213894 BitCount = 111 ID = 971
   0.317732 1  3A              Rx   d 7 00 00 00 00 04 06 4B  Length = 217894 BitCount = 113 ID = 58
   0.317978 1  30              Rx   d 8 04 00 00 00 00 20 00 5C  Length = 237894 BitCount = 123 ID = 48
   0.318184 1  B3              Rx   d 6 00 00 00 00 11 CA  Length = 197898 BitCount = 103 ID = 179
   0.319003 1  262             Rx   d 4 00 01 00 69  Length = 159660 BitCount = 84 ID = 610
   0.319723 1  3E              Rx   d 3 16 D0 27  Length = 141898 BitCount = 75 ID = 62
   0.319906 1  39              Rx   d 4 1A 00 0B 62  Length = 157898 BitCount = 83 ID = 57
   0.321206 1  3B              Rx   d 5 00 00 00 E8 28  Length = 181898 BitCount = 95 ID = 59
   0.323904 1  38              Rx   d 7 80 00 08 00 00 00 C7  Length = 219894 BitCount = 114 ID = 56
   0.324060 1  20              Rx   d 3 00 00 07  Length = 147898 BitCount = 78 ID = 32
   0.324306 1  30              Rx   d 8 04 00 00 00 00 20 00 5C  Length = 237894 BitCount = 123 ID = 48
   0.324513 1  B1              Rx   d 6 00 00 00 00 11 C8  Length = 197898 BitCount = 103 ID = 177
   0.324745 1  25              Rx   d 8 0F 3E 0F F5 7A 7A 7A EC  Length = 223894 BitCount = 116 ID = 37
   0.324993 1  B4              Rx   d 8 00 00 00 00 00 00 00 BC  Length = 239894 BitCount = 124 ID = 180
   0.325243 1  230             Rx   d 7 00 06 00 00 00 00 3F  Length = 219894 BitCount = 114 ID = 560
   0.325425 1  3CD             Rx   d 5 00 00 00 E8 BD  Length = 173898 BitCount = 91 ID = 973
   0.325670 1  22              Rx   d 8 01 F5 01 FA 00 00 00 1B  Length = 235894 BitCount = 122 ID = 34
   0.325892 1  23              Rx   d 7 01 FE 02 02 00 00 2D  Length = 213894 BitCount = 111 ID = 35
   0.326118 1  3A              Rx   d 7 00 00 00 00 04 06 4B  Length = 217894 BitCount = 113 ID = 58
   0.327918 1  3E              Rx   d 3 16 D0 27  Length = 141898 BitCount = 75 ID = 62
   0.328098 1  39              Rx   d 4 1A 00 0B 62  Length = 157898 BitCount = 83 ID = 57
   0.329227 1  3B              Rx   d 5 00 00 00 E8 28  Length = 181898 BitCount = 95 ID = 59
   0.329971 1  30              Rx   d 8 04 00 00 00 00 20 00 5C  Length = 237894 BitCount = 123 ID = 48
   0.330177 1  B3              Rx   d 6 00 00 00 00 11 CA  Length = 197898 BitCount = 103 ID = 179
   0.330421 1  120             Rx   d 8 00 00 00 00 10 10 00 49  Length = 235894 BitCount = 122 ID = 288
   0.330585 1  591             Rx   d 4 25 A0 1F 06  Length = 155898 BitCount = 82 ID = 1425
   0.332130 1  38              Rx   d 7 80 00 08 00 00 00 C7  Length = 219894 BitCount = 114 ID = 56
   0.334092 1  3A              Rx   d 7 00 00 00 00 04 06 4B  Length = 217894 BitCount = 113 ID = 58
   0.334300 1  348             Rx   d 6 00 01 00 00 00 52  Length = 199898 BitCount = 104 ID = 840
   0.335892 1  20              Rx   d 3 00 00 07  Length = 147898 BitCount = 78 ID = 32
   0.336138 1  30              Rx   d 8 04 00 00 00 00 20 00 5C  Length = 237894 BitCount = 123 ID = 48
   0.336305 1  39              Rx   d 4 1A 00 0B 62  Length = 157898 BitCount = 83 ID = 57
   0.336541 1  25              Rx   d 8 0F 3E 0F F5 76 76 76 E0  Length = 227894 BitCount = 118 ID = 37
   0.336691 1  3E              Rx   d 3 16 D0 27  Length = 141898 BitCount = 75 ID = 62
   0.336897 1  B1              Rx   d 6 00 00 00 00 11 C8  Length = 197898 BitCount = 103 ID = 177
   0.337145 1  B4              Rx   d 8 00 00 00 00 00 00 00 BC  Length = 239894 BitCount = 124 ID = 180
   0.337336 1  3B              Rx   d 5 00 00 00 E8 28  Length = 181898 BitCount = 95 ID = 59
   0.337580 1  22              Rx   d 8 01 F5 01 FA 00 00 00 1B  Length = 235894 BitCount = 122 ID = 34
   0.337802 1  23              Rx   d 7 01 FF 02 02 00 00 2E  Length = 213894 BitCount = 111 ID = 35
   0.339010 1  262             Rx   d 4 00 01 00 69  Length = 159660 BitCount = 84 ID = 610
   0.340314 1  38              Rx   d 7 80 00 08 00 00 00 C7  Length = 219894 BitCount = 114 ID = 56
   0.340563 1  244             Rx   d 8 10 00 00 00 00 00 00 5E  Length = 239894 BitCount = 124 ID = 580
   0.341999 1  30              Rx   d 8 04 00 00 00 00 20 00 5C  Length = 237894 BitCount = 123 ID = 48
   0.342205 1  B3              Rx   d 6 00 00 00 00 11 CA  Length = 197898 BitCount = 103 ID = 179
   0.342431 1  3A              Rx   d 7 00 00 00 00 04 06 4B  Length = 217894 BitCount = 113 ID = 58
   0.344313 1  3E              Rx   d 3 16 D0 27  Length = 141898 BitCount = 75 ID = 62
   0.344486 1  39              Rx   d 4 1A 00 0B 62  Length = 157898 BitCount = 83 ID = 57
   0.345228 1  3B              Rx   d 5 00 00 00 E9 29  Length = 177898 BitCount = 93 ID = 59
   0.346422 1  120             Rx   d 8 00 00 00 00 10 10 00 49  Length = 235894 BitCount = 122 ID = 288
   0.347914 1  20              Rx   d 3 00 00 07  Length = 147898 BitCount = 78 ID = 32
   0.348161 1  30              Rx   d 8 04 00 00 00 00 20 00 5C  Length = 237894 BitCount = 123 ID = 48
   0.348367 1  B1              Rx   d 6 00 00 00 00 11 C8  Length = 197898 BitCount = 103 ID = 177
   0.348599 1  25              Rx   d 8 0F 3E 0F F5 78 78 78 E6  Length = 223894 BitCount = 116 ID = 37
   0.348827 1  38              Rx   d 7 80 00 08 00 00 00 C7  Length = 219894 BitCount = 114 ID = 56
   0.349076 1  B4              Rx   d 8 00 00 00 00 00 00 00 BC  Length = 239894 BitCount = 124 ID = 180
   0.349326 1  230             Rx   d 7 00 06 00 00 00 00 3F  Length = 219894 BitCount = 114 ID = 560
   0.349570 1  22              Rx   d 8 01 F6 01 FA 00 00 00 1C  Length = 235894 BitCount = 122 ID = 34
   0.349792 1  23              Rx   d 7 01 FE 02 02 00 00 2D  Length = 213894 BitCount = 111 ID = 35
   0.350502 1  3A              Rx   d 7 00 00 00 00 04 06 4B  Length = 217894 BitCount = 113 ID = 58
   0.352488 1  3E              Rx   d 3 16 D0 27  Length = 141898 BitCount = 75 ID = 62
   0.352678 1  39              Rx   d 4 1A 00 0B 62  Length = 157898 BitCount = 83 ID = 57
   0.353231 1  3B              Rx   d 5 00 00 00 E9 29  Length = 177898 BitCount = 93 ID = 59
   0.354031 1  30              Rx   d 8 04 00 00 00 00 20 00 5C  Length = 237894 BitCount = 123 ID = 48
   0.354237 1  B3              Rx   d 6 00 00 00 00 11 CA  Length = 197898 BitCount = 103 ID = 179
   0.356677 1  38              Rx   d 7 80 00 08 00 00 00 C7  Length = 219894 BitCount = 114 ID = 56
   0.358663 1  3A              Rx   d 7 00 00 00 00 04 06 4B  Length = 217894 BitCount = 113 ID = 58
   0.358831 1  262             Rx   d 4 00 01 00 69  Length = 159660 BitCount = 84 ID = 610
   0.360141 1  20              Rx   d 3 00 00 07  Length = 147898 BitCount = 78 ID = 32
   0.360388 1  30              Rx   d 8 04 00 00 00 00 20 00 5C  Length = 237894 BitCount = 123 ID = 48
   0.360594 1  B1              Rx   d 6 00 00 00 00 11 C8  Length = 197898 BitCount = 103 ID = 177
   0.360826 1  25              Rx   d 8 0F 3E 0F F5 7A 7A 7A EC  Length = 223894 BitCount = 116 ID = 37
   0.360992 1  39              Rx   d 4 1A 00 0B 62  Length = 158136 BitCount = 83 ID = 57
   0.361142 1  3E              Rx   d 3 16 D0 27  Length = 141898 BitCount = 75 ID = 62
   0.361333 1  3B              Rx   d 5 00 00 00 E8 28  Length = 181898 BitCount = 95 ID = 59
   0.361581 1  B4              Rx   d 8 00 00 00 00 00 00 00 BC  Length = 239894 BitCount = 124 ID = 180
   0.361825 1  22              Rx   d 8 01 F6 01 FA 00 00 00 1C  Length = 235894 BitCount = 122 ID = 34
   0.362047 1  23              Rx   d 7 01 FE 02 02 00 00 2D  Length = 213894 BitCount = 111 ID = 35
   0.362255 1  3C8             Rx   d 6 00 34 00 00 00 05  Length = 199898 BitCount = 104 ID = 968
   0.362837 1  120             Rx   d 8 00 00 00 00 10 10 00 49  Length = 235894 BitCount = 122 ID = 288
   0.364864 1  38              Rx   d 7 80 00 08 00 00 00 C7  Length = 219894 BitCount = 114 ID = 56
   0.365112 1  244             Rx   d 8 10 00 00 00 00 00 00 5E  Length = 239894 BitCount = 124 ID = 580
   0.366246 1  30              Rx   d 8 04 00 00 00 00 20 00 5C  Length = 237894 BitCount = 123 ID = 48
   0.366452 1  B3              Rx   d 6 00 00 00 00 11 CA  Length = 197898 BitCount = 103 ID = 179
   0.366898 1  3A              Rx   d 7 00 00 00 00 04 06 4B  Length = 217894 BitCount = 113 ID = 58
   0.367089 1  3CA             Rx   d 5 00 20 00 00 F2  Length = 181898 BitCount = 95 ID = 970
   0.368873 1  3E              Rx   d 3 16 D0 27  Length = 141898 BitCount = 75 ID = 62
   0.369065 1  39              Rx   d 4 1A 00 0B 62  Length = 157898 BitCount = 83 ID = 57
   0.369255 1  3B              Rx   d 5 00 00 00 E8 28  Length = 181898 BitCount = 95 ID = 59
   0.372164 1  3CF             Rx   d 5 10 13 21 00 1B  Length = 171898 BitCount = 90 ID = 975
   0.372320 1  20              Rx   d 3 00 00 07  Length = 147898 BitCount = 78 ID = 32
   0.372566 1  30              Rx   d 8 04 00 00 00 00 20 00 5C  Length = 237894 BitCount = 123 ID = 48
   0.372773 1  B1              Rx   d 6 00 00 00 00 11 C8  Length = 197898 BitCount = 103 ID = 177
   0.373005 1  25              Rx   d 8 0F 3E 0F F5 7A 7A 7A EC  Length = 223894 BitCount = 116 ID = 37
   0.373233 1  38              Rx   d 7 80 00 08 00 00 00 C7  Length = 219894 BitCount = 114 ID = 56
   0.373481 1  B4              Rx   d 8 00 00 00 00 00 00 00 BC  Length = 239894 BitCount = 124 ID = 180
   0.373731 1  230             Rx   d 7 00 06 00 00 00 00 3F  Length = 219894 BitCount = 114 ID = 560
   0.373976 1  22              Rx   d 8 01 F6 01 FA 00 00 00 1C  Length = 235894 BitCount = 122 ID = 34
   0.374198 1  23              Rx   d 7 01 FE 02 02 00 00 2D  Length = 213894 BitCount = 111 ID = 35
   0.375068 1  3A              Rx   d 7 00 00 00 00 04 06 4B  Length = 217894 BitCount = 113 ID = 58
   0.375276 1  348             Rx   d 6 00 01 00 00 00 52  Length = 199898 BitCount = 104 ID = 840
   0.377070 1  3E              Rx   d 3 16 D0 27  Length = 141898 BitCount = 75 ID = 62
   0.377260 1  3B              Rx   d 5 00 00 00 E8 28  Length = 181898 BitCount = 95 ID = 59
   0.377427 1  39              Rx   d 4 1A 00 0B 62  Length = 157898 BitCount = 83 ID = 57
   0.378325 1  30              Rx   d 8 04 00 00 00 00 20 00 5C  Length = 237894 BitCount = 123 ID = 48
   0.378531 1  B3              Rx   d 6 00 00 00 00 11 CA  Length = 197898 BitCount = 103 ID = 179
   0.378949 1  262             Rx   d 4 00 01 00 69  Length = 159660 BitCount = 84 ID = 610
   0.379219 1  120             Rx   d 8 00 00 00 00 10 10 00 49  Length = 235894 BitCount = 122 ID = 288
   0.381257 1  38              Rx   d 7 80 00 08 00 00 00 C7  Length = 219894 BitCount = 114 ID = 56
   0.383237 1  3A              Rx   d 7 00 00 00 00 04 06 4B  Length = 217894 BitCount = 113 ID = 58
   0.384231 1  20              Rx   d 3 00 00 07  Length = 147898 BitCount = 78 ID = 32
   0.384478 1  30              Rx   d 8 04 00 00 00 00 20 00 5C  Length = 237894 BitCount = 123 ID = 48
   0.384684 1  B1              Rx   d 6 00 00 00 00 11 C8  Length = 197898 BitCount = 103 ID = 177
   0.384918 1  25              Rx   d 8 0F 3E 0F F5 77 77 77 E3  Length = 225894 BitCount = 117 ID = 37
   0.385166 1  B4              Rx   d 8 00 00 00 00 00 00 00 BC  Length = 239894 BitCount = 124 ID = 180
   0.385356 1  3B              Rx   d 5 00 00 00 E8 28  Length = 181898 BitCount = 95 ID = 59
   0.385523 1  39              Rx   d 4 1A 00 0B 62  Length = 157898 BitCount = 83 ID = 57
   0.385673 1  3E              Rx   d 3 16 D0 27  Length = 141898 BitCount = 75 ID = 62
   0.385917 1  22              Rx   d 8 01 F5 01 FA 00 00 00 1B  Length = 235894 BitCount = 122 ID = 34
   0.386139 1  23              Rx   d 7 01 FE 02 02 00 00 2D  Length = 213894 BitCount = 111 ID = 35
   0.389449 1  38              Rx   d 7 80 00 08 00 00 00 C7  Length = 219894 BitCount = 114 ID = 56
   0.389697 1  244             Rx   d 8 10 00 00 00 00 00 00 5E  Length = 239894 BitCount = 124 ID = 580
   0.390363 1  30              Rx   d 8 04 00 00 00 00 20 00 5C  Length = 237894 BitCount = 123 ID = 48
   0.390569 1  B3              Rx   d 6 00 00 00 00 11 CA  Length = 197898 BitCount = 103 ID = 179
   0.391460 1  3A              Rx   d 7 00 00 00 00 04 06 4B  Length = 217894 BitCount = 113 ID = 58
   0.393230 1  3B              Rx   d 5 00 00 00 E8 28  Length = 181898 BitCount = 95 ID = 59
   0.393472 1  3E              Rx   d 3 16 D0 27  Length = 141898 BitCount = 75 ID = 62
   0.393644 1  39              Rx   d 4 1A 00 0B 62  Length = 157898 BitCount = 83 ID = 57
   0.395554 1  120             Rx   d 8 00 00 00 00 10 10 00 49  Length = 235894 BitCount = 122 ID = 288
   0.396273 1  20              Rx   d 3 00 00 07  Length = 147898 BitCount = 78 ID = 32
   0.396519 1  30              Rx   d 8 04 00 00 00 00 20 00 5C  Length = 237894 BitCount = 123 ID = 48
   0.396725 1  B1              Rx   d 6 00 00 00 00 11 C8  Length = 197898 BitCount = 103 ID = 177
   0.396957 1  25              Rx   d 8 0F 3E 0F F5 78 78 78 E6  Length = 223894 BitCount = 116 ID = 37
   0.397206 1  B4              Rx   d 8 00 00 00 00 00 00 00 BC  Length = 239894 BitCount = 124 ID = 180
   0.397456 1  230             Rx   d 7 00 06 00 00 00 00 3F  Length = 219894 BitCount = 114 ID = 560
   0.397684 1  38              Rx   d 7 80 00 08 00 00 00 C7  Length = 219894 BitCount = 114 ID = 56
   0.397928 1  22              Rx   d 8 01 F5 01 FA 00 00 00 1B  Length = 235894 BitCount = 122 ID = 34
   0.398150 1  23              Rx   d 7 01 FE 02 02 00 00 2D  Length = 213894 BitCount = 111 ID = 35
   0.398997 1  262             Rx   d 4 00 01 00 69  Length = 159660 BitCount = 84 ID = 610
   0.399662 1  3A              Rx   d 7 00 00 00 00 04 06 4B  Length = 217894 BitCount = 113 ID = 58
   0.401242 1  3B              Rx   d 5 00 00 00 E9 29  Length = 177898 BitCount = 93 ID = 59
   0.401638 1  3E              Rx   d 3 16 D0 27  Length = 141898 BitCount = 75 ID = 62
   0.401836 1  39              Rx   d 4 1A 00 0B 62  Length = 157898 BitCount = 83 ID = 57
   0.402390 1  30              Rx   d 8 04 00 00 00 00 20 00 5C  Length = 237894 BitCount = 123 ID = 48
   0.402597 1  B3              Rx   d 6 00 00 00 00 11 CA  Length = 197898 BitCount = 103 ID = 179
   0.405821 1  38              Rx   d 7 80 00 08 00 00 00 C7  Length = 219894 BitCount = 114 ID = 56
   0.406043 1  529             Rx   d 7 28 00 00 05 00 00 00  Length = 213894 BitCount = 111 ID = 1321
   0.407811 1  3A              Rx   d 7 00 00 00 00 04 06 4B  Length = 217894 BitCount = 113 ID = 58
   0.408355 1  20              Rx   d 3 00 00 07  Length = 147898 BitCount = 78 ID = 32
   0.408602 1  30              Rx   d 8 04 00 00 00 00 20 00 5C  Length = 237894 BitCount = 123 ID = 48
   0.408808 1  B1              Rx   d 6 00 00 00 00 11 C8  Length = 197898 BitCount = 103 ID = 177
   0.409042 1  25              Rx   d 8 0F 3E 0F F5 79 79 79 E9  Length = 225894 BitCount = 117 ID = 37
   0.409290 1  B4              Rx   d 8 00 00 00 00 00 00 00 BC  Length = 239894 BitCount = 124 ID = 180
   0.409477 1  3B              Rx   d 5 00 00 00 E9 29  Length = 177898 BitCount = 93 ID = 59
   0.409715 1  3C9             Rx   d 8 03 FF 25 02 AB 03 34 DF  Length = 225894 BitCount = 117 ID = 969
   0.409959 1  22              Rx   d 8 01 F5 01 FA 00 00 00 1B  Length = 235894 BitCount = 122 ID = 34
   0.410181 1  23              Rx   d 7 01 FE 02 02 00 00 2D  Length = 213894 BitCount = 111 ID = 35
   0.410347 1  39              Rx   d 4 1A 00 0B 62  Length = 157898 BitCount = 83 ID = 57
   0.410498 1  3E              Rx   d 3 16 D0 27  Length = 141898 BitCount = 75 ID = 62
   0.412006 1  120             Rx   d 8 00 00 00 00 10 10 00 49  Length = 235894 BitCount = 122 ID = 288
   0.414012 1  38              Rx   d 7 80 00 08 00 00 00 C7  Length = 219894 BitCount = 114 ID = 56
   0.414260 1  244             Rx   d 8 10 00 00 00 00 00 00 5E  Length = 239894 BitCount = 124 ID = 580
   0.414506 1  30              Rx   d 8 04 00 00 00 00 20 00 5C  Length = 237894 BitCount = 123 ID = 48
   0.414713 1  B3              Rx   d 6 00 00 00 00 11 CA  Length = 197898 BitCount = 103 ID = 179
   0.416041 1  3A              Rx   d 7 00 00 00 00 04 06 4B  Length = 217894 BitCount = 113 ID = 58
   0.416249 1  348             Rx   d 6 00 01 00 00 00 52  Length = 199898 BitCount = 104 ID = 840
   0.417293 1  3B              Rx   d 5 00 00 00 E9 29  Length = 177898 BitCount = 93 ID = 59
   0.417520 1  3CB             Rx   d 7 5F 5F 00 7E 0F 0D 2D  Length = 213894 BitCount = 111 ID = 971
   0.418020 1  3E              Rx   d 3 16 D0 27  Length = 141898 BitCount = 75 ID = 62
   0.418224 1  39              Rx   d 4 1A 00 0B 62  Length = 157898 BitCount = 83 ID = 57
   0.418869 1  262             Rx   d 4 00 01 00 69  Length = 159660 BitCount = 84 ID = 610
   0.420425 1  20              Rx   d 3 00 00 07  Length = 147898 BitCount = 78 ID = 32
   0.420672 1  30              Rx   d 8 04 00 00 00 00 20 00 5C  Length = 237894 BitCount = 123 ID = 48
   0.420878 1  B1              Rx   d 6 00 00 00 00 11 C8  Length = 197898 BitCount = 103 ID = 177
   0.421110 1  25              Rx   d 8 0F 3E 0F F5 78 78 78 E6  Length = 223894 BitCount = 116 ID = 37
   0.421358 1  B4              Rx   d 8 00 00 00 00 00 00 00 BC  Length = 239894 BitCount = 124 ID = 180
   0.421609 1  230             Rx   d 7 00 06 00 00 00 00 3F  Length = 219894 BitCount = 114 ID = 560
   0.422017 1  22              Rx   d 8 01 F5 01 FB 00 00 00 1C  Length = 239894 BitCount = 124 ID = 34
   0.422239 1  23              Rx   d 7 01 FE 02 02 00 00 2D  Length = 213894 BitCount = 111 ID = 35
   0.422467 1  38              Rx   d 7 80 00 08 00 00 00 C7  Length = 219894 BitCount = 114 ID = 56
   0.424199 1  3A              Rx   d 7 00 00 00 00 04 06 4B  Length = 217894 BitCount = 113 ID = 58
   0.425295 1  3B              Rx   d 5 00 00 00 E8 28  Length = 181898 BitCount = 95 ID = 59
   0.425480 1  3CD             Rx   d 5 00 00 00 E8 BD  Length = 173898 BitCount = 91 ID = 973
   0.426212 1  3E              Rx   d 3 16 D0 27  Length = 141898 BitCount = 75 ID = 62
   0.426416 1  39              Rx   d 4 1A 00 0B 62  Length = 157898 BitCount = 83 ID = 57
   0.426662 1  30              Rx   d 8 04 00 00 00 00 20 00 5C  Length = 237894 BitCount = 123 ID = 48
   0.426868 1  B3              Rx   d 6 00 00 00 00 11 CA  Length = 197898 BitCount = 103 ID = 179
   0.427497 1  3C8             Rx   d 6 00 34 00 00 00 05  Length = 199898 BitCount = 104 ID = 968
   0.428403 1  120             Rx   d 8 00 00 00 00 10 10 00 49  Length = 235894 BitCount = 122 ID = 288
   0.430397 1  38              Rx   d 7 80 00 08 00 00 00 C7  Length = 219894 BitCount = 114 ID = 56
   0.432387 1  3A              Rx   d 7 00 00 00 00 04 06 4B  Length = 217894 BitCount = 113 ID = 58
   0.432621 1  20              Rx   d 3 00 00 07  Length = 147898 BitCount = 78 ID = 32
   0.432868 1  30              Rx   d 8 04 00 00 00 00 20 00 5C  Length = 237894 BitCount = 123 ID = 48
   0.433074 1  B1              Rx   d 6 00 00 00 00 11 C8  Length = 197898 BitCount = 103 ID = 177
   0.433306 1  25              Rx   d 8 0F 3E 0F F5 7A 7A 7A EC  Length = 223894 BitCount = 116 ID = 37
   0.433496 1  3B              Rx   d 5 00 00 00 E8 28  Length = 181898 BitCount = 95 ID = 59
   0.433744 1  B4              Rx   d 8 00 00 00 00 00 00 00 BC  Length = 239894 BitCount = 124 ID = 180
   0.434208 1  22              Rx   d 8 01 F5 01 FA 00 00 00 1B  Length = 235894 BitCount = 122 ID = 34
   0.434431 1  23              Rx   d 7 01 FE 02 02 00 00 2D  Length = 213894 BitCount = 111 ID = 35
   0.434581 1  3E              Rx   d 3 16 D0 27  Length = 141898 BitCount = 75 ID = 62
   0.434747 1  39              Rx   d 4 1A 00 0B 62  Length = 157898 BitCount = 83 ID = 57
   0.438587 1  38              Rx   d 7 80 00 08 00 00 00 C7  Length = 219894 BitCount = 114 ID = 56
   0.438833 1  30              Rx   d 8 04 00 00 00 00 20 00 5C  Length = 237894 BitCount = 123 ID = 48
   0.439039 1  B3              Rx   d 6 00 00 00 00 11 CA  Length = 198136 BitCount = 103 ID = 179
   0.439287 1  244             Rx   d 8 10 00 00 00 00 00 00 5E  Length = 239894 BitCount = 124 ID = 580
   0.439455 1  262             Rx   d 4 00 01 00 69  Length = 159660 BitCount = 84 ID = 610
   0.440634 1  3A              Rx   d 7 00 00 00 00 04 06 4B  Length = 217894 BitCount = 113 ID = 58
   0.441298 1  3B              Rx   d 5 00 00 00 E8 28  Length = 181898 BitCount = 95 ID = 59
   0.442596 1  3E              Rx   d 3 16 D0 27  Length = 141898 BitCount = 75 ID = 62
   0.442802 1  39              Rx   d 4 1A 00 0B 62  Length = 157898 BitCount = 83 ID = 57
   0.444718 1  120             Rx   d 8 00 00 00 00 10 10 00 49  Length = 235894 BitCount = 122 ID = 288
   0.444874 1  20              Rx   d 3 00 00 07  Length = 147898 BitCount = 78 ID = 32
   0.445121 1  30              Rx   d 8 04 00 00 00 00 20 00 5C  Length = 237894 BitCount = 123 ID = 48
   0.445327 1  B1              Rx   d 6 00 00 00 00 11 C8  Length = 197898 BitCount = 103 ID = 177
   0.445561 1  25              Rx   d 8 0F 3E 0F F5 7B 7B 7B EF  Length = 225894 BitCount = 117 ID = 37
   0.445809 1  B4              Rx   d 8 00 00 00 00 00 00 00 BC  Length = 239894 BitCount = 124 ID = 180
   0.446060 1  230             Rx   d 7 00 06 00 00 00 00 3F  Length = 219894 BitCount = 114 ID = 560
   0.446474 1  22              Rx   d 8 01 F5 01 FA 00 00 00 1B  Length = 235894 BitCount = 122 ID = 34
   0.446696 1  23              Rx   d 7 01 FE 02 02 00 00 2D  Length = 213894 BitCount = 111 ID = 35
   0.446924 1  38              Rx   d 7 80 00 08 00 00 00 C7  Length = 219894 BitCount = 114 ID = 56
   0.448782 1  3A              Rx   d 7 00 00 00 00 04 06 4B  Length = 217894 BitCount = 113 ID = 58
   0.449296 1  3B              Rx   d 5 00 00 00 E9 29  Length = 177898 BitCount = 93 ID = 59
   0.450805 1  3E              Rx   d 3 16 D0 27  Length = 141898 BitCount = 75 ID = 62
   0.451051 1  30              Rx   d 8 04 00 00 00 00 20 00 5C  Length = 237894 BitCount = 123 ID = 48
   0.451217 1  39              Rx   d 4 1A 00 0B 62  Length = 157898 BitCount = 83 ID = 57
   0.451423 1  B3              Rx   d 6 00 00 00 00 11 CA  Length = 197898 BitCount = 103 ID = 179
   0.454969 1  38              Rx   d 7 80 00 08 00 00 00 C7  Length = 219894 BitCount = 114 ID = 56
   0.456963 1  3A              Rx   d 7 00 00 00 00 04 06 4B  Length = 217894 BitCount = 113 ID = 58
   0.457120 1  20              Rx   d 3 00 00 07  Length = 147898 BitCount = 78 ID = 32
   0.457366 1  30              Rx   d 8 04 00 00 00 00 20 00 5C  Length = 237894 BitCount = 123 ID = 48
   0.457552 1  3B              Rx   d 5 00 00 00 E9 29  Length = 177898 BitCount = 93 ID = 59
   0.457784 1  25              Rx   d 8 0F 3E 0F F5 7A 7A 7A EC  Length = 223894 BitCount = 116 ID = 37
   0.457990 1  B1              Rx   d 6 00 00 00 00 11 C8  Length = 197898 BitCount = 103 ID = 177
   0.458239 1  B4              Rx   d 8 00 00 00 00 00 00 00 BC  Length = 239894 BitCount = 124 ID = 180
   0.458447 1  348             Rx   d 6 00 01 00 00 00 52  Length = 199898 BitCount = 104 ID = 840
   0.458713 1  22              Rx   d 8 01 F5 01 FA 00 00 00 1B  Length = 235894 BitCount = 122 ID = 34
   0.458935 1  23              Rx   d 7 01 FE 02 02 00 00 2D  Length = 214136 BitCount = 111 ID = 35
   0.459085 1  3E              Rx   d 3 16 D0 27  Length = 142136 BitCount = 75 ID = 62
   0.459251 1  39              Rx   d 4 1A 00 0B 62  Length = 157898 BitCount = 83 ID = 57
   0.459419 1  262             Rx   d 4 00 01 00 69  Length = 159660 BitCount = 84 ID = 610
   0.461149 1  120             Rx   d 8 00 00 00 00 10 10 00 49  Length = 235894 BitCount = 122 ID = 288
   0.463114 1  30              Rx   d 8 04 00 00 00 00 20 00 5C  Length = 237894 BitCount = 123 ID = 48
   0.463342 1  38              Rx   d 7 80 00 08 00 00 00 C7  Length = 219894 BitCount = 114 ID = 56
   0.463548 1  B3              Rx   d 6 00 00 00 00 11 CA  Length = 197898 BitCount = 103 ID = 179
   0.463796 1  244             Rx   d 8 10 00 00 00 00 00 00 5E  Length = 239894 BitCount = 124 ID = 580
   0.465180 1  3A              Rx   d 7 00 00 00 00 04 06 4B  Length = 217894 BitCount = 113 ID = 58
   0.465371 1  3B              Rx   d 5 00 00 00 E8 28  Length = 181898 BitCount = 95 ID = 59
   0.467173 1  3E              Rx   d 3 16 D0 27  Length = 141898 BitCount = 75 ID = 62
   0.467363 1  3CA             Rx   d 5 00 20 00 00 F2  Length = 181898 BitCount = 95 ID = 970
   0.467529 1  39              Rx   d 4 1A 00 0B 62  Length = 157898 BitCount = 83 ID = 57
   0.469003 1  20              Rx   d 3 00 00 07  Length = 147898 BitCount = 78 ID = 32
   0.469250 1  30              Rx   d 8 04 00 00 00 00 20 00 5C  Length = 237894 BitCount = 123 ID = 48
   0.469456 1  B1              Rx   d 6 00 00 00 00 11 C8  Length = 197898 BitCount = 103 ID = 177
   0.469690 1  25              Rx   d 8 0F 3E 0F F5 77 77 77 E3  Length = 225894 BitCount = 117 ID = 37
   0.469938 1  B4              Rx   d 8 00 00 00 00 00 00 00 BC  Length = 239894 BitCount = 124 ID = 180
   0.470188 1  230             Rx   d 7 00 06 00 00 00 00 3F  Length = 219894 BitCount = 114 ID = 560
   0.470601 1  22              Rx   d 8 01 F6 01 FA 00 00 00 1C  Length = 235894 BitCount = 122 ID = 34
   0.470823 1  23              Rx   d 7 01 FE 02 02 00 00 2D  Length = 213894 BitCount = 111 ID = 35
   0.471405 1  38              Rx   d 7 80 00 08 00 00 00 C7  Length = 219894 BitCount = 114 ID = 56
   0.473287 1  3B              Rx   d 5 00 00 00 E8 28  Length = 181898 BitCount = 95 ID = 59
   0.473513 1  3A              Rx   d 7 00 00 00 00 04 06 4B  Length = 217894 BitCount = 113 ID = 58
   0.475198 1  30              Rx   d 8 04 00 00 00 00 20 00 5C  Length = 237894 BitCount = 123 ID = 48
   0.475404 1  B3              Rx   d 6 00 00 00 00 11 CA  Length = 197898 BitCount = 103 ID = 179
   0.475554 1  3E              Rx   d 3 16 D0 27  Length = 141898 BitCount = 75 ID = 62
   0.475720 1  39              Rx   d 4 1A 00 0B 62  Length = 157898 BitCount = 83 ID = 57
   0.477502 1  120             Rx   d 8 00 00 00 00 10 10 00 49  Length = 235894 BitCount = 122 ID = 288
   0.478791 1  262             Rx   d 4 00 01 00 69  Length = 159660 BitCount = 84 ID = 610
   0.479555 1  38              Rx   d 7 80 00 08 00 00 00 C7  Length = 219894 BitCount = 114 ID = 56
   0.481165 1  20              Rx   d 3 00 00 07  Length = 147898 BitCount = 78 ID = 32
   0.481411 1  30              Rx   d 8 04 00 00 00 00 20 00 5C  Length = 237894 BitCount = 123 ID = 48
   0.481637 1  3A              Rx   d 7 00 00 00 00 04 06 4B  Length = 217894 BitCount = 113 ID = 58
   0.481872 1  25              Rx   d 8 0F 3E 0F F5 79 79 79 E9  Length = 225894 BitCount = 117 ID = 37
   0.482062 1  3B              Rx   d 5 00 00 00 E8 28  Length = 181898 BitCount = 95 ID = 59
   0.482268 1  B1              Rx   d 6 00 00 00 00 11 C8  Length = 197898 BitCount = 103 ID = 177
   0.482516 1  B4              Rx   d 8 00 00 00 00 00 00 00 BC  Length = 239894 BitCount = 124 ID = 180
   0.482765 1  22              Rx   d 8 01 F6 01 FA 00 00 00 1C  Length = 235894 BitCount = 122 ID = 34
   0.482987 1  23              Rx   d 7 01 FE 02 02 00 00 2D  Length = 213894 BitCount = 111 ID = 35
   0.483603 1  3E              Rx   d 3 16 D0 27  Length = 141898 BitCount = 75 ID = 62
   0.483769 1  39              Rx   d 4 1A 00 0B 62  Length = 157898 BitCount = 83 ID = 57
   0.487317 1  30              Rx   d 8 04 00 00 00 00 20 00 5C  Length = 237894 BitCount = 123 ID = 48
   0.487523 1  B3              Rx   d 6 00 00 00 00 11 CA  Length = 197898 BitCount = 103 ID = 179
   0.487752 1  38              Rx   d 7 80 00 08 00 00 00 C7  Length = 219894 BitCount = 114 ID = 56
   0.488000 1  244             Rx   d 8 10 00 00 00 00 00 00 5E  Length = 239894 BitCount = 124 ID = 580
   0.489294 1  3B              Rx   d 5 00 00 00 E8 28  Length = 181898 BitCount = 95 ID = 59
   0.489764 1  3A              Rx   d 7 00 00 00 00 04 06 4B  Length = 217894 BitCount = 113 ID = 58
   0.491747 1  3E              Rx   d 3 16 D0 27  Length = 141898 BitCount = 75 ID = 62
   0.491961 1  39              Rx   d 4 1A 00 0B 62  Length = 157898 BitCount = 83 ID = 57
   0.493043 1  3C8             Rx   d 6 00 34 00 00 00 05  Length = 199898 BitCount = 104 ID = 968
   0.493265 1  20              Rx   d 3 00 00 07  Length = 147898 BitCount = 78 ID = 32
   0.493512 1  30              Rx   d 8 04 00 00 00 00 20 00 5C  Length = 237894 BitCount = 123 ID = 48
   0.493718 1  B1              Rx   d 6 00 00 00 00 11 C8  Length = 197898 BitCount = 103 ID = 177
   0.493952 1  25              Rx   d 8 0F 3E 0F F5 79 79 79 E9  Length = 225894 BitCount = 117 ID = 37
   0.494200 1  B4              Rx   d 8 00 00 00 00 00 00 00 BC  Length = 239894 BitCount = 124 ID = 180
   0.494444 1  120             Rx   d 8 00 00 00 00 10 10 00 49  Length = 235894 BitCount = 122 ID = 288
   0.494673 1  230             Rx   d 7 00 06 00 00 00 00 3F  Length = 219894 BitCount = 114 ID = 560
   0.494917 1  22              Rx   d 8 01 F5 01 FA 00 00 00 1B  Length = 235894 BitCount = 122 ID = 34
   0.495139 1  23              Rx   d 7 01 FE 02 02 00 00 2D  Length = 213894 BitCount = 111 ID = 35
   0.495957 1  38              Rx   d 7 80 00 08 00 00 00 C7  Length = 219894 BitCount = 114 ID = 56
   0.497267 1  3B              Rx   d 5 00 00 00 E9 29  Length = 177898 BitCount = 93 ID = 59
   0.497934 1  3A              Rx   d 7 00 00 00 00 04 06 4B  Length = 217894 BitCount = 113 ID = 58
   0.498142 1  348             Rx   d 6 00 01 00 00 00 52  Length = 199898 BitCount = 104 ID = 840
   0.498835 1  262             Rx   d 4 00 01 00 69  Length = 159660 BitCount = 84 ID = 610
   0.499365 1  30              Rx   d 8 04 00 00 00 00 20 00 5C  Length = 237894 BitCount = 123 ID = 48
   0.499571 1  B3              Rx   d 6 00 00 00 00 11 CA  Length = 197898 BitCount = 103 ID = 179
   0.499936 1  3E              Rx   d 3 16 D0 27  Length = 141898 BitCount = 75 ID = 62
   0.500154 1  39              Rx   d 4 1A 00 0B 62  Length = 157898 BitCount = 83 ID = 57
   0.503254 1  3CF             Rx   d 5 10 13 21 00 1B  Length = 171898 BitCount = 90 ID = 975
   0.504131 1  38              Rx   d 7 80 00 08 00 00 00 C7  Length = 219894 BitCount = 114 ID = 56
   0.505275 1  3B              Rx   d 5 00 00 00 E9 29  Length = 177898 BitCount = 93 ID = 59
   0.505431 1  20              Rx   d 3 00 00 07  Length = 147898 BitCount = 78 ID = 32
   0.505677 1  30              Rx   d 8 04 00 00 00 00 20 00 5C  Length = 237894 BitCount = 123 ID = 48
   0.505884 1  B1              Rx   d 6 00 00 00 00 11 C8  Length = 197898 BitCount = 103 ID = 177
   0.506118 1  25              Rx   d 8 0F 3E 0F F5 79 79 79 E9  Length = 225894 BitCount = 117 ID = 37
   0.506344 1  3A              Rx   d 7 00 00 00 00 04 06 4B  Length = 217894 BitCount = 113 ID = 58
   0.506592 1  B4              Rx   d 8 00 00 00 00 00 00 00 BC  Length = 239894 BitCount = 124 ID = 180
   0.507020 1  22              Rx   d 8 01 F5 01 FA 00 00 00 1B  Length = 235894 BitCount = 122 ID = 34
   0.507243 1  23              Rx   d 7 01 FE 02 02 00 00 2D  Length = 213894 BitCount = 111 ID = 35
   0.508127 1  3E              Rx   d 3 16 D0 27  Length = 141898 BitCount = 75 ID = 62
   0.508349 1  39              Rx   d 4 1A 00 0B 62  Length = 157898 BitCount = 83 ID = 57
   0.509367 1  3C9             Rx   d 8 03 FF 25 02 AB 03 34 DF  Length = 225894 BitCount = 117 ID = 969
   0.510269 1  120             Rx   d 8 00 00 00 00 10 10 00 49  Length = 235894 BitCount = 122 ID = 288
   0.511491 1  30              Rx   d 8 04 00 00 00 00 20 00 5C  Length = 237894 BitCount = 123 ID = 48
   0.511698 1  B3              Rx   d 6 00 00 00 00 11 CA  Length = 197898 BitCount = 103 ID = 179
   0.512340 1  38              Rx   d 7 80 00 08 00 00 00 C7  Length = 219894 BitCount = 114 ID = 56
   0.512588 1  244             Rx   d 8 10 00 00 00 00 00 00 5E  Length = 239894 BitCount = 124 ID = 580
   0.513294 1  3B              Rx   d 5 00 00 00 E9 29  Length = 177898 BitCount = 93 ID = 59
   0.514315 1  3A              Rx   d 7 00 00 00 00 04 06 4B  Length = 217894 BitCount = 113 ID = 58
   0.516321 1  3E              Rx   d 3 16 D0 27  Length = 141898 BitCount = 75 ID = 62
   0.516541 1  39              Rx   d 4 1A 00 0B 62  Length = 157898 BitCount = 83 ID = 57
   0.517357 1  3CB             Rx   d 7 5F 5F 00 7E 0F 0D 2D  Length = 213894 BitCount = 111 ID = 971
   0.517513 1  20              Rx   d 3 00 00 07  Length = 147898 BitCount = 78 ID = 32
   0.517760 1  30              Rx   d 8 04 00 00 00 00 20 00 5C  Length = 237894 BitCount = 123 ID = 48
   0.517966 1  B1              Rx   d 6 00 00 00 00 11 C8  Length = 197898 BitCount = 103 ID = 177
   0.518200 1  25              Rx   d 8 0F 3E 0F F5 79 79 79 E9  Length = 225894 BitCount = 117 ID = 37
   0.518448 1  B4              Rx   d 8 00 00 00 00 00 00 00 BC  Length = 239894 BitCount = 124 ID = 180
   0.518699 1  230             Rx   d 7 00 06 00 00 00 00 3F  Length = 219894 BitCount = 114 ID = 560
   0.518866 1  262             Rx   d 4 00 01 00 69  Length = 159660 BitCount = 84 ID = 610
   0.519115 1  22              Rx   d 8 01 F5 01 FA 00 00 00 1B  Length = 235894 BitCount = 122 ID = 34
   0.519337 1  23              Rx   d 7 01 FE 02 02 00 00 2D  Length = 213894 BitCount = 111 ID = 35
   0.520529 1  38              Rx   d 7 80 00 08 00 00 00 C7  Length = 219894 BitCount = 114 ID = 56
   0.521285 1  3B              Rx   d 5 00 00 00 E8 28  Length = 181898 BitCount = 95 ID = 59
   0.522507 1  3A              Rx   d 7 00 00 00 00 04 06 4B  Length = 217894 BitCount = 113 ID = 58
   0.523550 1  30              Rx   d 8 04 00 00 00 00 20 00 5C  Length = 237894 BitCount = 123 ID = 48
   0.523756 1  B3              Rx   d 6 00 00 00 00 11 CA  Length = 197898 BitCount = 103 ID = 179
   0.524510 1  3E              Rx   d 3 16 D0 27  Length = 141898 BitCount = 75 ID = 62
   0.524734 1  39              Rx   d 4 1A 00 0B 62  Length = 157898 BitCount = 83 ID = 57
   0.525327 1  3CD             Rx   d 5 00 00 00 E8 BD  Length = 173898 BitCount = 91 ID = 973
   0.526669 1  120             Rx   d 8 00 00 00 00 10 10 00 49  Length = 235894 BitCount = 122 ID = 288
   0.528689 1  38              Rx   d 7 80 00 08 00 00 00 C7  Length = 219894 BitCount = 114 ID = 56
   0.529287 1  3B              Rx   d 5 00 00 00 E8 28  Length = 181898 BitCount = 95 ID = 59
   0.529469 1  20              Rx   d 3 00 00 07  Length = 147898 BitCount = 78 ID = 32
   0.529716 1  30              Rx   d 8 04 00 00 00 00 20 00 5C  Length = 237894 BitCount = 123 ID = 48
   0.529922 1  B1              Rx   d 6 00 00 00 00 11 C8  Length = 197898 BitCount = 103 ID = 177
   0.530154 1  25              Rx   d 8 0F 3E 0F F5 78 78 78 E6  Length = 223894 BitCount = 116 ID = 37
   0.530402 1  B4              Rx   d 8 00 00 00 00 00 00 00 BC  Length = 239894 BitCount = 124 ID = 180
   0.530732 1  3A              Rx   d 7 00 00 00 00 04 06 4B  Length = 217894 BitCount = 113 ID = 58
   0.531062 1  22              Rx   d 8 01 F5 01 FA 00 00 00 1B  Length = 235894 BitCount = 122 ID = 34
   0.531285 1  23              Rx   d 7 01 FE 02 02 00 00 2D  Length = 213894 BitCount = 111 ID = 35
   0.532703 1  3E              Rx   d 3 16 D0 27  Length = 141898 BitCount = 75 ID = 62
   0.532927 1  39              Rx   d 4 1A 00 0B 62  Length = 157898 BitCount = 83 ID = 57
   0.535619 1  30              Rx   d 8 04 00 00 00 00 20 00 5C  Length = 237894 BitCount = 123 ID = 48
   0.535825 1  B3              Rx   d 6 00 00 00 00 11 CA  Length = 197898 BitCount = 103 ID = 179
   0.536913 1  38              Rx   d 7 80 00 08 00 00 00 C7  Length = 219894 BitCount = 114 ID = 56
   0.537162 1  244             Rx   d 8 10 00 00 00 00 00 00 5E  Length = 239894 BitCount = 124 ID = 580
   0.537352 1  3B              Rx   d 5 00 00 00 E8 28  Length = 181898 BitCount = 95 ID = 59
   0.538680 1  262             Rx   d 4 00 01 00 69  Length = 159660 BitCount = 84 ID = 610
   0.538907 1  3A              Rx   d 7 00 00 00 00 04 06 4B  Length = 217894 BitCount = 113 ID = 58
   0.539115 1  348             Rx   d 6 00 01 00 00 00 52  Length = 199898 BitCount = 104 ID = 840
   0.540891 1  3E              Rx   d 3 16 D0 27  Length = 141898 BitCount = 75 ID = 62
   0.541121 1  39              Rx   d 4 1A 00 0B 62  Length = 157898 BitCount = 83 ID = 57
   0.541567 1  20              Rx   d 3 00 00 07  Length = 147898 BitCount = 78 ID = 32
   0.541813 1  30              Rx   d 8 04 00 00 00 00 20 00 5C  Length = 237894 BitCount = 123 ID = 48
   0.542020 1  B1              Rx   d 6 00 00 00 00 11 C8  Length = 197898 BitCount = 103 ID = 177
   0.542252 1  25              Rx   d 8 0F 3E 0F F5 78 78 78 E6  Length = 223894 BitCount = 116 ID = 37
   0.542500 1  B4              Rx   d 8 00 00 00 00 00 00 00 BC  Length = 239894 BitCount = 124 ID = 180
   0.542760 1  230             Rx   d 7 00 06 00 00 00 00 3F  Length = 219894 BitCount = 114 ID = 560
   0.543049 1  120             Rx   d 8 00 00 00 00 10 10 00 49  Length = 235894 BitCount = 122 ID = 288
   0.543297 1  22              Rx   d 8 01 F5 01 FB 00 00 00 1C  Length = 239894 BitCount = 124 ID = 34
   0.543519 1  23              Rx   d 7 01 FE 02 02 00 00 2D  Length = 213894 BitCount = 111 ID = 35
   0.545087 1  38              Rx   d 7 80 00 08 00 00 00 C7  Length = 219894 BitCount = 114 ID = 56
   0.545289 1  3B              Rx   d 5 00 00 00 E9 29  Length = 177898 BitCount = 93 ID = 59
   0.547085 1  3A              Rx   d 7 00 00 00 00 04 06 4B  Length = 217894 BitCount = 113 ID = 58
   0.547763 1  30              Rx   d 8 04 00 00 00 00 20 00 5C  Length = 237894 BitCount = 123 ID = 48
   0.547970 1  B3              Rx   d 6 00 00 00 00 11 CA  Length = 197898 BitCount = 103 ID = 179
   0.549116 1  3E              Rx   d 3 16 D0 27  Length = 141898 BitCount = 75 ID = 62
   0.549314 1  39              Rx   d 4 1A 00 0B 62  Length = 157898 BitCount = 83 ID = 57
   0.552377 1  5CC             Rx   d 3 24 01 A6  Length = 137898 BitCount = 73 ID = 1484
   0.553263 1  38              Rx   d 7 80 00 08 00 00 00 C7  Length = 219894 BitCount = 114 ID = 56
   0.553449 1  3B              Rx   d 5 00 00 00 E9 29  Length = 177898 BitCount = 93 ID = 59
   0.553697 1  20              Rx   d 3 00 00 07  Length = 147898 BitCount = 78 ID = 32
   0.553943 1  30              Rx   d 8 04 00 00 00 00 20 00 5C  Length = 237894 BitCount = 123 ID = 48
   0.554150 1  B1              Rx   d 6 00 00 00 00 11 C8  Length = 197898 BitCount = 103 ID = 177
   0.554382 1  25              Rx   d 8 0F 3E 0F F5 7A 7A 7A EC  Length = 223894 BitCount = 116 ID = 37
   0.554630 1  B4              Rx   d 8 00 00 00 00 00 00 00 BC  Length = 239894 BitCount = 124 ID = 180
   0.555292 1  22              Rx   d 8 01 F6 01 FB 00 00 00 1D  Length = 235894 BitCount = 122 ID = 34
   0.555514 1  23              Rx   d 7 01 FE 02 02 00 00 2D  Length = 213894 BitCount = 111 ID = 35
   0.555740 1  3A              Rx   d 7 00 00 00 00 04 06 4B  Length = 217894 BitCount = 113 ID = 58
   0.557274 1  3E              Rx   d 3 16 D0 27  Length = 141898 BitCount = 75 ID = 62
   0.557507 1  39              Rx   d 4 1A 00 0B 62  Length = 157898 BitCount = 83 ID = 57
   0.558587 1  3C8             Rx   d 6 00 34 00 00 00 05  Length = 199898 BitCount = 104 ID = 968
   0.558721 1  521             Rx   d 2 23 00  Length = 125898 BitCount = 67 ID = 1313
   0.558889 1  262             Rx   d 4 00 01 00 69  Length = 159660 BitCount = 84 ID = 610
   0.559417 1  120             Rx   d 8 00 00 00 00 10 10 00 49  Length = 235894 BitCount = 122 ID = 288
   0.559837 1  30              Rx   d 8 04 00 00 00 00 20 00 5C  Length = 237894 BitCount = 123 ID = 48
   0.560044 1  B3              Rx   d 6 00 00 00 00 11 CA  Length = 197898 BitCount = 103 ID = 179
   0.561300 1  3B              Rx   d 5 00 00 00 E8 28  Length = 181898 BitCount = 95 ID = 59
   0.561528 1  38              Rx   d 7 80 00 08 00 00 00 C7  Length = 219894 BitCount = 114 ID = 56
   0.561776 1  244             Rx   d 8 10 00 00 00 00 00 00 5E  Length = 239894 BitCount = 124 ID = 580
   0.563460 1  3A              Rx   d 7 00 00 00 00 04 06 4B  Length = 217894 BitCount = 113 ID = 58
   0.565471 1  3E              Rx   d 3 16 D0 27  Length = 141898 BitCount = 75 ID = 62
   0.565699 1  39              Rx   d 4 1A 00 0B 62  Length = 157898 BitCount = 83 ID = 57
   0.565855 1  20              Rx   d 3 00 00 07  Length = 147898 BitCount = 78 ID = 32
   0.566101 1  30              Rx   d 8 04 00 00 00 00 20 00 5C  Length = 237894 BitCount = 123 ID = 48
   0.566308 1  B1              Rx   d 6 00 00 00 00 11 C8  Length = 197898 BitCount = 103 ID = 177
   0.566542 1  25              Rx   d 8 0F 3E 0F F5 79 79 79 E9  Length = 225894 BitCount = 117 ID = 37
   0.566790 1  B4              Rx   d 8 00 00 00 00 00 00 00 BC  Length = 239894 BitCount = 124 ID = 180
   0.567040 1  230             Rx   d 7 00 06 00 00 00 00 3F  Length = 219894 BitCount = 114 ID = 560
   0.567442 1  22              Rx   d 8 01 F5 01 FA 00 00 00 1B  Length = 235894 BitCount = 122 ID = 34
   0.567664 1  23              Rx   d 7 01 FE 02 02 00 00 2D  Length = 213894 BitCount = 111 ID = 35
   0.567855 1  3CA             Rx   d 5 00 20 00 00 F2  Length = 181898 BitCount = 95 ID = 970
   0.569303 1  3B              Rx   d 5 00 00 00 E8 28  Length = 181898 BitCount = 95 ID = 59
   0.569679 1  38              Rx   d 7 80 00 08 00 00 00 C7  Length = 219894 BitCount = 114 ID = 56
   0.571641 1  3A              Rx   d 7 00 00 00 00 04 06 4B  Length = 217894 BitCount = 113 ID = 58
   0.571887 1  30              Rx   d 8 04 00 00 00 00 20 00 5C  Length = 237894 BitCount = 123 ID = 48
   0.572094 1  B3              Rx   d 6 00 00 00 00 11 CA  Length = 197898 BitCount = 103 ID = 179
   0.573658 1  3E              Rx   d 3 16 D0 27  Length = 141898 BitCount = 75 ID = 62
   0.573892 1  39              Rx   d 4 1A 00 0B 62  Length = 157898 BitCount = 83 ID = 57
   0.575798 1  120             Rx   d 8 00 00 00 00 10 10 00 49  Length = 235894 BitCount = 122 ID = 288
   0.577305 1  3B              Rx   d 5 00 00 00 E8 28  Length = 181898 BitCount = 95 ID = 59
   0.577775 1  20              Rx   d 3 00 00 07  Length = 147898 BitCount = 78 ID = 32
   0.578021 1  30              Rx   d 8 04 00 00 00 00 20 00 5C  Length = 237894 BitCount = 123 ID = 48
   0.578249 1  38              Rx   d 7 80 00 08 00 00 00 C7  Length = 219894 BitCount = 114 ID = 56
   0.578483 1  25              Rx   d 8 0F 3E 0F F5 77 77 77 E3  Length = 225894 BitCount = 117 ID = 37
   0.578690 1  B1              Rx   d 6 00 00 00 00 11 C8  Length = 197898 BitCount = 103 ID = 177
   0.578938 1  B4              Rx   d 8 00 00 00 00 00 00 00 BC  Length = 240136 BitCount = 124 ID = 180
   0.579106 1  262             Rx   d 4 00 01 00 69  Length = 159660 BitCount = 84 ID = 610
   0.579372 1  22              Rx   d 8 01 F5 01 FA 00 00 00 1B  Length = 235894 BitCount = 122 ID = 34
   0.579594 1  23              Rx   d 7 01 FE 02 02 00 00 2D  Length = 213894 BitCount = 111 ID = 35
   0.579880 1  3A              Rx   d 7 00 00 00 00 04 06 4B  Length = 217894 BitCount = 113 ID = 58
   0.580089 1  348             Rx   d 6 00 01 00 00 00 52  Length = 199898 BitCount = 104 ID = 840
   0.581849 1  3E              Rx   d 3 16 D0 27  Length = 141898 BitCount = 75 ID = 62
   0.582087 1  39              Rx   d 4 1A 00 0B 62  Length = 157898 BitCount = 83 ID = 57
   0.583873 1  30              Rx   d 8 04 00 00 00 00 20 00 5C  Length = 237894 BitCount = 123 ID = 48
   0.584079 1  B3              Rx   d 6 00 00 00 00 11 CA  Length = 197898 BitCount = 103 ID = 179
   0.585308 1  3B              Rx   d 5 00 00 00 E8 28  Length = 181898 BitCount = 95 ID = 59
   0.586078 1  38              Rx   d 7 80 00 08 00 00 00 C7  Length = 219894 BitCount = 114 ID = 56
   0.586326 1  244             Rx   d 8 10 00 00 00 00 00 00 5E  Length = 239894 BitCount = 124 ID = 580
   0.588022 1  3A              Rx   d 7 00 00 00 00 04 06 4B  Length = 217894 BitCount = 113 ID = 58
   0.589808 1  20              Rx   d 3 00 00 07  Length = 147898 BitCount = 78 ID = 32
   0.590055 1  30              Rx   d 8 04 00 00 00 00 20 00 5C  Length = 237894 BitCount = 123 ID = 48
   0.590205 1  3E              Rx   d 3 16 D0 27  Length = 141898 BitCount = 75 ID = 62
   0.590437 1  25              Rx   d 8 0F 3E 0F F5 78 78 78 E6  Length = 223894 BitCount = 116 ID = 37
   0.590603 1  39              Rx   d 4 1A 00 0B 62  Length = 157898 BitCount = 83 ID = 57
   0.590809 1  B1              Rx   d 6 00 00 00 00 11 C8  Length = 197898 BitCount = 103 ID = 177
   0.591058 1  B4              Rx   d 8 00 00 00 00 00 00 00 BC  Length = 239894 BitCount = 124 ID = 180
   0.591308 1  230             Rx   d 7 00 06 00 00 00 00 3F  Length = 219894 BitCount = 114 ID = 560
   0.591552 1  22              Rx   d 8 01 F5 01 FA 00 00 00 1B  Length = 235894 BitCount = 122 ID = 34
   0.591774 1  23              Rx   d 7 01 FE 02 02 00 00 2D  Length = 213894 BitCount = 111 ID = 35
   0.592198 1  120             Rx   d 8 00 00 00 00 10 10 00 49  Length = 235894 BitCount = 122 ID = 288
   0.593333 1  3B              Rx   d 5 00 00 00 E8 28  Length = 181898 BitCount = 95 ID = 59
   0.594237 1  38              Rx   d 7 80 00 08 00 00 00 C7  Length = 219894 BitCount = 114 ID = 56
   0.594411 1  540             Rx   d 4 25 80 00 00  Length = 165898 BitCount = 87 ID = 1344
   0.595991 1  30              Rx   d 8 04 00 00 00 00 20 00 5C  Length = 237894 BitCount = 123 ID = 48
   0.596217 1  3A              Rx   d 7 00 00 00 00 04 06 4B  Length = 217894 BitCount = 113 ID = 58
   0.596424 1  B3              Rx   d 6 00 00 00 00 11 CA  Length = 197898 BitCount = 103 ID = 179
   0.598232 1  3E              Rx   d 3 16 D0 27  Length = 141898 BitCount = 75 ID = 62
   0.598399 1  262             Rx   d 4 00 01 00 69  Length = 159660 BitCount = 84 ID = 610
